!Agilent Technologies,N5227A,US51270464,A.10.00.00
!Agilent N5227A: A.10.00.00
!Date: Thursday, July 23, 2020 15:01:42
!Correction: S11(Full 2 Port(1,2)) 
!S21(Full 2 Port(1,2)) 
!S12(Full 2 Port(1,2)) 
!S22(Full 2 Port(1,2)) 
!S2P File: Measurements: S11, S21, S12, S22:
# Hz S  RI   R 50
8000000000 -0.33126414 0.36094627 -0.31879345 -0.28009385 -0.31892961 -0.28004321 -0.3909094 0.32687324
8160000000 0.19024791 0.32020092 -0.15740001 0.35194695 -0.15738842 0.35210842 0.10865818 0.38296673
8320000000 0.033150461 -0.13058294 0.532377 0.012999009 0.53258634 0.012826107 0.042904742 -0.089644156
8480000000 -0.24944615 0.18299194 -0.2712189 -0.46006951 -0.27150065 -0.46014503 -0.24423788 0.22288294
8640000000 0.11221083 0.18635233 -0.33822119 0.44961804 -0.338209 0.44992378 0.088561207 0.25494066
8800000000 -0.02972864 0.25437662 0.55629003 0.07923574 0.55651414 0.07910043 0.062556997 0.28051981
8960000000 0.071928896 0.12798922 -0.1712501 -0.54602939 -0.17148322 -0.54616624 0.093554936 0.11857752
9120000000 0.27532101 0.26262602 -0.36954868 0.34093192 -0.36964837 0.34119114 0.31203765 0.24519454
9280000000 0.18049903 -0.21270306 0.45036295 0.26415178 0.45063838 0.26416212 0.23063076 -0.20715596
9440000000 -0.099899217 -0.0344989 0.041211832 -0.5437175 0.041076526 -0.54395366 -0.076398417 -0.084264107
9600000000 -0.13796572 0.045308575 -0.47334313 0.22390236 -0.47345853 0.22415181 -0.08506377 -0.027097363
9760000000 -0.085545912 0.31583416 0.33482882 0.35037896 0.33506504 0.35047483 -0.14025581 0.24829844
9920000000 0.22313493 0.22520329 0.25990745 -0.43149081 0.25989217 -0.43180764 0.21376111 0.1755318
10080000000 0.18150797 0.22310139 -0.52372128 -0.014377092 -0.52394164 -0.014179635 0.077621147 0.20805946
10240000000 0.38380304 -0.050790388 0.13570535 0.4700022 0.13592561 0.47016743 0.35522407 -0.041208394
10400000000 0.095633782 -0.084921286 0.41672614 -0.34364811 0.41676727 -0.34389871 0.054593142 -0.060175769
10560000000 0.065703861 -0.030776609 -0.4841857 -0.24956621 -0.48449376 -0.24947944 0.034260191 -0.031574383
10720000000 0.10850828 -0.029634165 -0.024395434 0.54888391 -0.02419203 0.54910535 0.098308392 0.020302553
10880000000 0.071400292 0.0027407424 0.51150334 -0.2041012 0.51159263 -0.2043784 0.067923002 0.025111254
11040000000 0.09038043 -0.096047238 -0.38238704 -0.38401014 -0.38265133 -0.38399342 0.130955 -0.06133109
11200000000 0.023634586 0.013622447 -0.200342 0.50334316 -0.20020197 0.5035609 0.045684878 -0.043102667
11360000000 0.081403486 0.033094261 0.53935981 -0.017653219 0.53951871 -0.017885979 0.037875965 0.018814567
11520000000 0.18812951 -0.069627292 -0.21684879 -0.47707924 -0.21711616 -0.47711039 0.14573888 -0.093510441
11680000000 0.036958285 -0.11421885 -0.36383459 0.38516128 -0.36373889 0.38543421 -0.03287866 -0.041174911
11840000000 0.021786464 -0.048247751 0.49851829 0.17822567 0.4987222 0.17803992 0.041165888 -0.00067059952
12000000000 0.11865847 -0.094660342 -0.036638215 -0.51520699 -0.036875244 -0.51533902 0.15231827 -0.014938043
12160000000 -0.06351921 -0.13842715 -0.46386945 0.22078651 -0.463911 0.22105579 0.016211534 -0.15143137
12320000000 -0.0095417593 -0.018440098 0.38882315 0.33816838 0.38909337 0.33809155 0.014262169 -0.026884325
12480000000 0.079249702 -0.026789734 0.14863396 -0.48607552 0.14848177 -0.48626673 0.098324172 -0.052388396
12640000000 -0.042721555 -0.20657441 -0.48366278 0.045025699 -0.48368618 0.045114163 -0.025504621 -0.2245779
12800000000 -0.13238198 0.060150627 0.2215813 0.42701951 0.22167283 0.42698392 -0.14868188 0.028123247
12960000000 0.060384639 0.016562605 0.3220531 -0.33854356 0.32199952 -0.33857182 0.05181624 0.022283822
13120000000 0.00094150979 -0.092457108 -0.45293346 -0.15226957 -0.45298949 -0.1522056 0.032715671 -0.095142506
13280000000 0.0337919 0.0028857999 0.013881327 0.46791154 0.013934345 0.46795079 0.034353655 -0.028584599
13440000000 -0.042917538 -0.11258789 0.43825847 -0.19747825 0.43826076 -0.1975393 -0.039839085 -0.13157003
13600000000 -0.031150794 0.036833297 -0.35759252 -0.33244386 -0.35763168 -0.33239248 -0.085692339 -0.0019297743
13760000000 0.072845548 -0.037174195 -0.15293323 0.45922077 -0.15287788 0.45923075 0.045258764 0.019226579
13920000000 -0.038481049 -0.17225936 0.46456888 -0.033888154 0.46459571 -0.033936352 -0.013808782 -0.15486589
14080000000 -0.14430232 0.012232699 -0.1955135 -0.42733347 -0.19557472 -0.42732212 -0.12179992 0.020129688
14240000000 0.0034982944 0.050731611 -0.31126967 0.35492915 -0.31125602 0.35500053 0.032516614 0.021012163
14400000000 0.010614409 -0.10692067 0.43323067 0.15737891 0.4332509 0.15736264 0.038351476 -0.12259293
14560000000 -0.12112872 0.020486934 -0.023528509 -0.45871815 -0.023555983 -0.45873493 -0.13730966 -0.061439261
14720000000 0.031536754 0.054276288 -0.42408952 0.19387357 -0.4240644 0.19389133 -0.032045532 0.064374395
14880000000 0.026463227 -0.072863445 0.34674439 0.30925059 0.34679714 0.30915311 0.034289714 -0.056250677
15040000000 -0.11576547 -0.036555611 0.14858577 -0.42564648 0.14856644 -0.42573893 -0.10882024 -0.056985628
15200000000 0.00012462259 0.075066887 -0.45812172 0.019229928 -0.45816493 0.019279636 -0.025420535 0.059557609
15360000000 0.075204261 -0.044744372 0.1996716 0.40997386 0.1997328 0.40995276 0.044939335 -0.061990418
15520000000 -0.057384975 -0.11286535 0.29842478 -0.33281308 0.29836676 -0.33287573 -0.092259854 -0.089224249
15680000000 -0.067160584 -0.068313785 -0.42146891 -0.14347319 -0.42150852 -0.14337191 -0.086077936 -0.048517026
15840000000 -0.18697061 0.0097915083 0.021879155 0.43524504 0.021948202 0.43525907 -0.18725501 0.044063151
16000000000 -0.028664181 0.1055133 0.40318635 -0.18368173 0.40320489 -0.18374148 -0.02015877 0.12304139
16160000000 -0.030034536 0.065482862 -0.33128765 -0.29478416 -0.3313438 -0.29475823 -0.0012964972 0.085767619
16320000000 0.086191326 0.027841603 -0.14347795 0.41288391 -0.14341153 0.41292223 0.10235161 0.022482716
16480000000 -0.011955416 -0.11011984 0.43348983 -0.024483433 0.4334932 -0.024568236 0.0074089472 -0.11670867
16640000000 -0.065823004 -0.02856552 -0.19199686 -0.38889423 -0.19207866 -0.38888147 -0.06549304 -0.046435922
16800000000 -0.13512926 -0.043950234 -0.27351162 0.32052726 -0.27347815 0.32059082 -0.12618764 -0.04857599
16960000000 -0.097855508 0.097037137 0.39553714 0.1341873 0.39554664 0.13416679 -0.093741648 0.087148719
17120000000 -0.076208457 0.087228328 -0.028036911 -0.40382737 -0.028079668 -0.40383303 -0.083280839 0.05936357
17280000000 0.037799921 0.097988583 -0.37328568 0.16273546 -0.37328905 0.16279265 0.0071118684 0.10922824
17440000000 -0.00099684915 0.0091174226 0.30584335 0.28830299 0.30591145 0.2882745 0.01614726 0.031243486
17600000000 -0.040150791 0.033424262 0.13452379 -0.38993213 0.13445477 -0.39000174 -0.027845228 0.011284367
17760000000 0.048402313 0.13470443 -0.40324536 0.017730994 -0.40326646 0.01777973 0.012502111 0.13998708
17920000000 0.13233371 -0.071333691 0.1629438 0.36512309 0.16297841 0.36514562 0.14288086 -0.033921573
18080000000 -0.073168449 -0.10553052 0.2838923 -0.29056478 0.28384972 -0.29058862 -0.05567833 -0.089648284
18240000000 -0.075387686 0.020898316 -0.38373858 -0.14743143 -0.38372436 -0.14741158 -0.028271314 0.030651787
18400000000 -0.035829823 0.011312963 0.018614735 0.40857559 0.018671183 0.40855569 -0.0072110719 -0.0093651153
18560000000 -0.065480188 -0.0055657774 0.36513484 -0.17624253 0.36512128 -0.17627832 -0.03630311 -0.028006803
18720000000 -0.096035048 0.053960279 -0.3017647 -0.25915247 -0.30181751 -0.25915882 -0.063666083 0.031493723
18880000000 -0.11068428 0.11626552 -0.10707474 0.36917612 -0.10711972 0.36917409 -0.092935808 0.037469503
19040000000 0.078298904 0.2672022 0.3524124 -0.028306488 0.35244173 -0.028296925 0.060747966 0.22561301
19200000000 0.2689878 -0.027083684 -0.13131048 -0.32572636 -0.13128711 -0.32578528 0.23183519 -0.085386425
19360000000 0.031493068 -0.132111 -0.26995528 0.26082814 -0.27000996 0.2608476 -0.011604653 -0.1502942
19520000000 -0.025973681 -0.15347864 0.34248826 0.1275271 0.34249696 0.12752584 -0.08092282 -0.17540416
19680000000 -0.239473 0.024665821 0.00034342194 -0.34495121 0.00034763443 -0.34497291 -0.28965211 0.013018666
19840000000 0.041899908 0.19764659 -0.33271039 0.1097002 -0.33276147 0.10964689 -0.048616465 0.23066388
20000000000 0.086910121 -0.019524816 0.2431549 0.28136963 0.24313678 0.28142715 0.050668981 0.036624756
20160000000 -0.011544509 -0.047602545 0.15662746 -0.33941913 0.15663686 -0.33942115 -0.037125111 0.047507416
20320000000 -0.0028960807 0.049337849 -0.37175062 -0.011582511 -0.3717255 -0.011604354 0.0033050068 0.11691549
20480000000 0.037631027 -0.047845576 0.13368808 0.34651136 0.13365312 0.34649381 0.097373091 0.060273178
20640000000 -0.0034317994 -0.030351344 0.26352802 -0.25971052 0.26354074 -0.25966749 0.081109606 -0.0033621537
20800000000 -0.058272827 -0.097830214 -0.33198622 -0.14150819 -0.33192518 -0.14151917 0.067256652 -0.089488201
20960000000 -0.14384896 0.03905531 -0.0053823073 0.35740045 -0.0053669726 0.35733685 -0.086895391 -0.044622254
21120000000 -0.014145792 0.086963661 0.32953614 -0.12583196 0.3294903 -0.12582226 0.022096826 0.031924382
21280000000 0.0039027929 0.0043476182 -0.24405269 -0.26315528 -0.24404411 -0.26316047 -0.0079837935 -0.054711223
21440000000 -0.071118779 0.014287877 -0.14361858 0.33144158 -0.14370249 0.3314513 -0.082988083 -0.022458917
21600000000 -0.0091061238 0.084011674 0.35897902 0.0029710848 0.35893601 0.003062052 -0.050439678 0.079907209
21760000000 0.0074797757 0.031268645 -0.13758118 -0.32897738 -0.13756432 -0.32892501 0.012049805 0.057189643
21920000000 0.037329275 0.038038183 -0.2507405 0.25019458 -0.25072992 0.25016746 0.055188179 0.042188246
22080000000 0.020091908 -0.026901595 0.32581082 0.13288121 0.32581729 0.13291986 0.054428659 -0.028213659
22240000000 0.0093928911 -0.038203396 -0.003386901 -0.34724012 -0.0033291329 -0.34723428 0.039665256 -0.06375549
22400000000 -0.094966754 -0.069530174 -0.31639412 0.13036945 -0.31639451 0.13035542 -0.059628367 -0.10782447
22560000000 -0.1086322 0.061358273 0.24222358 0.2445482 0.24222316 0.24452958 -0.10532183 0.013649233
22720000000 -0.063878968 0.085129194 0.12834381 -0.31832618 0.12837879 -0.31833073 -0.067110837 0.023429127
22880000000 0.028103793 0.1430697 -0.33377174 0.0012732368 -0.33383182 0.0012219277 -0.0144886 0.10900149
23040000000 0.10833566 0.017184272 0.12353294 0.31181335 0.12345135 0.31183633 0.06888032 -0.016847201
23200000000 0.023285702 -0.026607856 0.24040352 -0.23800132 0.24040663 -0.23793693 -0.017771672 -0.035495479
23360000000 0.013707886 -0.027471425 -0.31029648 -0.12415092 -0.31026009 -0.1241726 -0.04212936 -0.029076805
23520000000 -0.0090490999 -0.034611646 0.0081610354 0.32689652 0.0080925273 0.32689041 -0.041918706 0.0079930099
23680000000 -0.046153013 -0.054278344 0.29268754 -0.12875342 0.29269138 -0.1287197 -0.056111377 -0.019904077
23840000000 -0.078463674 0.03019269 -0.23121279 -0.22016835 -0.23115157 -0.2202094 -0.076972552 0.060739629
24000000000 0.013011331 0.015848437 -0.11664841 0.28857422 -0.11671269 0.28850678 0.021634679 0.05850428
24160000000 -0.052264649 -0.050927162 0.3190583 0.0025232246 0.31911534 0.0025845384 -0.015402115 -0.033310369
24320000000 -0.10120186 0.045947317 -0.12323359 -0.29398707 -0.12319936 -0.29405341 -0.083994605 0.048313063
24480000000 0.010105788 0.050257836 -0.22031347 0.22555275 -0.22042178 0.22553554 0.024651626 0.080778204
24640000000 -0.043712053 -0.044656627 0.28863648 0.11238981 0.28866631 0.1125179 0.030357938 -0.031295933
24800000000 -0.11365191 0.052642319 -0.0077281147 -0.3085517 -0.0076366174 -0.30860803 -0.08556743 0.004856383
24960000000 0.008187931 0.090149999 -0.27955121 0.12667079 -0.27962461 0.12664296 0.0083803777 0.083259091
25120000000 -0.0048305443 -0.029867902 0.22129464 0.2075429 0.22135183 0.20757413 0.02784244 -0.027550654
25280000000 -0.10184348 0.028868396 0.10601167 -0.28152251 0.10607627 -0.28156927 -0.082200862 -0.014349394
25440000000 -0.00023302686 0.1098792 -0.29530963 0.0068478296 -0.29537338 0.0068084011 -0.029107651 0.10858574
25600000000 0.037165295 -0.041464388 0.11919143 0.26635286 0.11923471 0.26645738 0.070291348 -0.00050257001
25760000000 -0.13965747 -0.026884686 0.19077547 -0.2038618 0.19085349 -0.20388721 -0.087959804 -0.052381653
25920000000 -0.073731944 0.17785576 -0.24901801 -0.10399199 -0.24905179 -0.10404363 -0.06546475 0.15993254
26080000000 0.11649099 0.02774604 -0.010308371 0.27077195 -0.010367476 0.27076453 0.15055874 0.054042038
26240000000 -0.075694345 -0.072842471 0.26354083 -0.09452983 0.26359129 -0.094486699 0.013170172 -0.11333441
26400000000 -0.084029175 0.079359695 -0.19802327 -0.21015386 -0.19801296 -0.21023133 -0.079317003 0.014767678
26560000000 0.0082071014 0.044351608 -0.11257195 0.26895574 -0.11253768 0.26898667 0.018171845 0.022171464
26720000000 -0.054426581 -0.017669518 0.28902781 -0.0043234169 0.28905705 -0.0043434184 -0.020876369 -0.056447648
26880000000 -0.09710522 0.065123916 -0.11054746 -0.26138937 -0.1105513 -0.26136869 -0.10322673 0.0039246883
27040000000 -0.038913362 0.06624233 -0.19997303 0.20696218 -0.19994222 0.20698701 -0.04897254 0.044857394
27200000000 -0.054468531 0.070274316 0.2686449 0.097038068 0.26864791 0.097086132 -0.039809458 0.045387063
27360000000 -0.041300327 0.094916746 -0.016557267 -0.27920094 -0.016501926 -0.27919471 -0.052186005 0.049843904
27520000000 0.011269727 0.085440263 -0.25329545 0.1234469 -0.25327501 0.12339645 -0.013789709 0.076848045
27680000000 -0.0058905431 0.052048124 0.21416606 0.18270989 0.21416089 0.18269774 -0.0026025723 0.054463983
27840000000 -0.0044574519 0.047278088 0.08285208 -0.26503465 0.082810566 -0.26500726 0.0043032072 0.034381364
28000000000 -0.010046375 0.055990297 -0.2744495 0.022991491 -0.27439103 0.023016799 -0.0083204098 0.04597893
28160000000 -0.012003254 0.046233743 0.13108402 0.24266833 0.13109924 0.2426596 -0.0026097675 0.042848323
28320000000 0.0080006747 0.02932344 0.16806361 -0.21561193 0.16807625 -0.21554211 0.026536407 0.031791061
28480000000 -0.04058037 -0.026195323 -0.25870425 -0.064301476 -0.25869089 -0.064337157 0.0025662361 -0.02799632
28640000000 -0.13804354 0.039299753 0.040573038 0.25836539 0.040559817 0.25836113 -0.097502381 0.0093452996
28800000000 -0.11553577 0.117073 0.21575594 -0.13862458 0.21573785 -0.13857882 -0.077935919 0.064289317
28960000000 -0.057254985 0.23495379 -0.19724369 -0.13638422 -0.19723955 -0.13641487 -0.05930493 0.19201328
29120000000 0.13257208 0.14049315 -0.067451686 0.22832114 -0.067461647 0.22829293 0.15175261 0.125475
29280000000 0.036141519 0.01283741 0.25338578 -0.028745364 0.25337288 -0.028655969 0.095121071 -0.030660957
29440000000 0.0036763493 0.040935535 -0.13629022 -0.21844929 -0.13623238 -0.2184215 0.016160298 -0.029092344
29600000000 -0.0025383239 0.014316677 -0.14211398 0.2094432 -0.14211886 0.20940378 0.013611753 -0.03618747
29760000000 -0.079366006 -0.0099163391 0.24513021 0.039540794 0.24514833 0.039547402 -0.057049289 -0.069611043
29920000000 -0.15446039 0.14268361 -0.055078425 -0.22399461 -0.055008501 -0.22407034 -0.1734731 0.058442261
30080000000 0.045858622 0.18510686 -0.18868566 0.12416689 -0.18873687 0.12409581 0.014741108 0.1681658
30240000000 -0.0030802751 0.014695384 0.19012475 0.12714823 0.19000451 0.12715092 0.054667596 -0.0020396924
30400000000 -0.14486954 0.14250107 0.037098896 -0.21625346 0.037107941 -0.21617301 -0.12183734 0.010004471
30560000000 0.038265452 0.26860663 -0.20520173 0.032861061 -0.20513202 0.032792218 -0.0045583365 0.19348395
30720000000 0.10692514 0.093676925 0.10752585 0.19485304 0.10747196 0.19485429 0.08900211 0.032014549
30880000000 0.0018772673 0.090210348 0.13542895 -0.18561943 0.13539435 -0.18552417 -0.023365738 -0.0047818776
31040000000 0.034759615 0.14819898 -0.22429197 -0.048647612 -0.2241817 -0.048629127 -0.052244589 0.088839091
31200000000 0.060665708 0.094963193 0.047244895 0.22626084 0.047212657 0.22610594 0.0024696791 0.07733772
31360000000 0.036089569 0.079365037 0.18649249 -0.13712013 0.18634404 -0.13707785 -0.011535807 0.068620756
31520000000 -0.010783548 0.10662359 -0.20185597 -0.10584908 -0.2018877 -0.10585178 -0.038176529 0.097144879
31680000000 -0.021175666 0.15944779 -0.0050108712 0.21760586 -0.0050403667 0.2175999 -0.03903608 0.13872443
31840000000 0.08217188 0.25524276 0.18467651 -0.074837394 0.18468828 -0.074750163 0.062027715 0.22036371
32000000000 0.18008415 0.20999998 -0.13559793 -0.12876223 -0.13555866 -0.12882434 0.13515982 0.17898762
32160000000 0.32890561 0.045684002 -0.067004643 0.14286239 -0.067055374 0.14285471 0.3133966 0.05513541
32320000000 0.08179941 -0.20719051 0.15377687 0.032491751 0.15375082 0.032556459 0.13071151 -0.24720137
32480000000 -0.15621871 0.068165302 -0.020580726 -0.16374987 -0.020541457 -0.16369776 -0.19783261 -0.076622739
32640000000 0.079416797 0.21892977 -0.15803739 0.075099774 -0.15801232 0.075057983 -0.058057398 0.18967485
32800000000 0.12267911 0.074431784 0.1482951 0.13150214 0.14826095 0.13157737 0.062501997 0.097094007
32960000000 0.078149997 0.087470599 0.054330256 -0.20193671 0.054402526 -0.20190944 0.042867932 0.087521575
33120000000 0.11205568 0.13448271 -0.20528874 0.039897252 -0.20527333 0.03981423 0.073341079 0.12792869
33280000000 0.15813594 0.086999297 0.12012728 0.17076805 0.12007787 0.1707693 0.11503767 0.067601196
33440000000 0.19813745 0.058855738 0.10572865 -0.17412755 0.10575266 -0.17407304 0.14375825 0.03802095
33600000000 0.17219599 -0.0090237986 -0.20463875 -0.029117167 -0.20458198 -0.029128922 0.083396375 -0.0086221751
33760000000 0.1373084 -0.036380786 0.059417814 0.1988962 0.059363119 0.19890092 0.075056575 -0.0079804724
33920000000 0.088855281 -0.012263936 0.15293126 -0.13785104 0.15292229 -0.1378153 0.03189975 0.009161883
34080000000 0.11603721 0.025396032 -0.18513446 -0.078831777 -0.18510103 -0.078889199 0.044476613 0.063206524
34240000000 0.15443687 -0.055617753 0.0020540936 0.19404049 0.0019939947 0.19405749 0.13515592 0.024810839
34400000000 0.0099200914 -0.057096604 0.17526647 -0.078809991 0.17530417 -0.078762211 0.027906401 -0.050018989
34560000000 0.055079147 0.12390126 -0.13672441 -0.11852939 -0.13670199 -0.11853145 -0.0029071991 0.1165655
34720000000 0.27052006 0.040549506 -0.062354881 0.15408964 -0.062339678 0.1540191 0.21924414 0.10135207
34880000000 0.17364593 -0.14623298 0.17407301 0.011783666 0.17401376 0.011772237 0.17893638 -0.10409435
35040000000 0.10244828 -0.098211028 -0.065982126 -0.17188956 -0.066000782 -0.17186661 0.065244757 -0.092369266
35200000000 0.10889039 -0.13804398 -0.12378265 0.13445655 -0.12382782 0.13447051 0.061196677 -0.053622462
35360000000 -0.022848137 -0.19437405 0.16294457 0.051883288 0.16292113 0.051945813 0.012333987 -0.14120869
35520000000 -0.13296096 0.02529012 -0.011271731 -0.15958942 -0.01123769 -0.1595201 -0.1416005 0.020210544
35680000000 0.1331262 0.12732828 -0.139834 0.061405156 -0.13979673 0.06133141 0.081352025 0.1872007
35840000000 0.19384074 -0.12674759 0.10238746 0.11688194 0.10238271 0.1169065 0.2285019 -0.035564907
36000000000 0.022690089 -0.13652042 0.080147959 -0.15404339 0.080145106 -0.15394998 0.064429104 -0.12630299
36160000000 0.054747641 -0.091528773 -0.183558 -0.0033279955 -0.18351291 -0.0033510176 0.027774932 -0.044205692
36320000000 0.030635925 -0.16671778 0.075760998 0.16739751 0.075705819 0.16743277 0.083552532 -0.067639746
36480000000 -0.090098359 -0.12906864 0.12272574 -0.13625756 0.12270167 -0.1362332 -0.0075601214 -0.1157238
36640000000 -0.058363002 -0.028779125 -0.17916988 -0.056392524 -0.17914428 -0.056474019 -0.020521453 -0.018902466
36800000000 -0.011155144 -0.050138108 0.025653651 0.18465523 0.025575828 0.18461066 0.034366075 -0.026555043
36960000000 -0.053568359 -0.063800275 0.15744016 -0.097988732 0.15743962 -0.097947501 0.0021784438 -0.079898387
37120000000 -0.0445548 -0.0035091757 -0.15502079 -0.10140549 -0.15494077 -0.10145167 -0.023381812 -0.022777183
37280000000 0.010367769 -0.012802223 -0.024094334 0.18098085 -0.024134832 0.18098608 0.015441139 -0.017557677
