!Agilent Technologies,N5227A,US51270464,A.10.00.00
!Agilent N5227A: A.10.00.00
!Date: Thursday, July 23, 2020 14:54:18
!Correction: S11(Full 2 Port(1,2)) 
!S21(Full 2 Port(1,2)) 
!S12(Full 2 Port(1,2)) 
!S22(Full 2 Port(1,2)) 
!S2P File: Measurements: S11, S21, S12, S22:
# Hz S  RI   R 50
8000000000 -0.28391373 0.57945073 -0.62726206 -0.29559907 -0.62731957 -0.29544011 -0.26137957 0.58959258
8160000000 -0.10961483 0.63852394 -0.68143713 -0.10515723 -0.6815604 -0.10502336 -0.092138082 0.64198965
8320000000 0.074094757 0.63763362 -0.68607193 0.092143551 -0.68611318 0.09235239 0.085443377 0.63934791
8480000000 0.24576327 0.57646668 -0.64119625 0.28738871 -0.64113712 0.28760487 0.25118759 0.57847083
8640000000 0.38275722 0.46651113 -0.54482198 0.47057939 -0.54471827 0.47080636 0.38747936 0.46695462
8800000000 0.47159788 0.31600618 -0.3949683 0.63095695 -0.39481634 0.63106918 0.47348246 0.31822839
8960000000 0.49849379 0.1484367 -0.1918463 0.74914521 -0.19166733 0.7491731 0.49936777 0.15332857
9120000000 0.45612368 -0.01067836 0.052339137 0.80054086 0.052532561 0.80058616 0.46108851 -0.0036317564
9280000000 0.36108127 -0.13169751 0.32281041 0.775047 0.32299712 0.77497637 0.37185967 -0.11519717
9440000000 0.23367472 -0.18508501 0.5840109 0.64534938 0.58421439 0.64520663 0.24703558 -0.17566046
9600000000 0.11007226 -0.17484426 0.79013783 0.41870165 0.79027539 0.41848174 0.13045928 -0.16587399
9760000000 0.029591978 -0.10770445 0.90170234 0.12306673 0.90173471 0.12288226 0.050386786 -0.10391326
9920000000 0.0070288642 -0.018760972 0.89494967 -0.19631356 0.89489627 -0.1965638 0.032047935 -0.023335736
10080000000 0.044169527 0.053159572 0.77291447 -0.4885982 0.77277946 -0.48883018 0.064266346 0.041096322
10240000000 0.11456039 0.083734654 0.55998296 -0.71335256 0.55975157 -0.71352458 0.12974131 0.064668544
10400000000 0.18944275 0.063673496 0.29104719 -0.84812534 0.29086074 -0.84818989 0.19855092 0.040768128
10560000000 0.24202223 0.001700982 0.00256303 -0.88602602 0.0023637121 -0.88605767 0.24491753 -0.021213995
10720000000 0.2589983 -0.084143139 -0.27554014 -0.8330577 -0.27575514 -0.83301163 0.25637901 -0.10362771
10880000000 0.23337062 -0.16936857 -0.51903296 -0.7005564 -0.5192042 -0.700409 0.22506629 -0.18615681
11040000000 0.17391177 -0.23899682 -0.70925647 -0.50311899 -0.70932025 -0.5029617 0.16181338 -0.2499437
11200000000 0.091486268 -0.27700365 -0.83129871 -0.25824332 -0.83133394 -0.25803205 0.078033134 -0.28310764
11360000000 0.0013931764 -0.2771025 -0.87387413 0.014140209 -0.87378395 0.014381631 -0.011309016 -0.27933145
11520000000 -0.075341202 -0.24300207 -0.8309896 0.28784654 -0.83083582 0.28805095 -0.090542905 -0.24147508
11680000000 -0.1307579 -0.18385005 -0.7033934 0.53951544 -0.70313513 0.53968322 -0.14275055 -0.1776844
11840000000 -0.15286675 -0.11455883 -0.4997384 0.74132663 -0.49944472 0.74138647 -0.16170818 -0.10384133
12000000000 -0.14464706 -0.049596868 -0.23754649 0.8685686 -0.23722027 0.86856061 -0.14816719 -0.038500655
12160000000 -0.11268928 -0.0042342697 0.054673038 0.90360528 0.054953035 0.90353251 -0.11152923 0.0067292633
12320000000 -0.069979958 0.015453674 0.34422863 0.84079295 0.34440646 0.84055901 -0.065837421 0.025110535
12480000000 -0.030625829 0.010604586 0.59778672 0.68590009 0.59792536 0.68563515 -0.025277629 0.017689811
12640000000 -0.0063491664 -0.011423295 0.78631967 0.45663446 0.78635597 0.4564051 -0.000742567 -0.0076126535
12800000000 -0.0012682111 -0.038570523 0.88966328 0.18082792 0.88962501 0.18056242 0.0010361867 -0.03745215
12960000000 -0.014241277 -0.061782427 0.89919049 -0.11276332 0.89904934 -0.11296104 -0.016093712 -0.060179777
13120000000 -0.039339833 -0.073888682 0.81463397 -0.39204255 0.81441808 -0.39222914 -0.045338567 -0.068184212
13280000000 -0.06752149 -0.070512921 0.64674085 -0.62912649 0.64654005 -0.62927037 -0.075535394 -0.057276689
13440000000 -0.092322975 -0.054519009 0.41346893 -0.80017418 0.41321892 -0.8002429 -0.098265924 -0.032238983
13600000000 -0.10718942 -0.029293828 0.13885878 -0.8888911 0.1385621 -0.88887584 -0.10686456 0.0035034334
13760000000 -0.11184944 -0.0004255627 -0.14933106 -0.88646638 -0.14951387 -0.88635403 -0.099124454 0.039784588
13920000000 -0.10547467 0.026854336 -0.42178968 -0.79327738 -0.42195648 -0.79311329 -0.076188497 0.070790939
14080000000 -0.092843033 0.050712094 -0.65106976 -0.61884326 -0.65113324 -0.61860323 -0.042989988 0.090356767
14240000000 -0.075645842 0.068430558 -0.81317675 -0.38053221 -0.81321943 -0.38032565 -0.0054135537 0.095392875
14400000000 -0.054575741 0.082150184 -0.89137459 -0.10298406 -0.89132309 -0.10268637 0.030288393 0.087016158
14560000000 -0.031630792 0.092291363 -0.8772943 0.18461184 -0.87717879 0.18480414 0.0600124 0.068382896
14720000000 -0.0069325576 0.097354971 -0.77277815 0.45249584 -0.77263939 0.45262337 0.08237686 0.041397039
14880000000 0.021583332 0.096386664 -0.58905673 0.67309386 -0.58878046 0.67324543 0.093625806 0.010004779
15040000000 0.053311992 0.083243027 -0.34482458 0.82392365 -0.34457496 0.82394767 0.095543414 -0.020258568
15200000000 0.083425194 0.063930109 -0.066367619 0.88901007 -0.066064291 0.88898045 0.091382727 -0.05150805
15360000000 0.10498641 0.02921042 0.2178444 0.86283857 0.21813521 0.86274815 0.077468656 -0.07883209
15520000000 0.11528543 -0.013050857 0.47853655 0.7482357 0.47879258 0.74803215 0.058428936 -0.10373374
15680000000 0.10893423 -0.057578359 0.68860424 0.55764383 0.68876183 0.55731678 0.030688999 -0.1232664
15840000000 0.083974026 -0.098643623 0.82764786 0.31142545 0.82768577 0.31107867 -0.001394479 -0.13396543
16000000000 0.043679487 -0.12740572 0.88194883 0.034819547 0.88190967 0.034473632 -0.03657297 -0.13368127
16160000000 -0.004250648 -0.13995637 0.84646708 -0.24401106 0.84626943 -0.24432436 -0.073126435 -0.12335403
16320000000 -0.053102311 -0.13194121 0.72582245 -0.49689507 0.72552723 -0.49714777 -0.10299616 -0.1009572
16480000000 -0.092117541 -0.10541353 0.53210944 -0.69933081 0.5317353 -0.69948637 -0.1226875 -0.0677853
16640000000 -0.11772554 -0.066546626 0.28423974 -0.83024544 0.28389701 -0.83027434 -0.13276389 -0.03243959
16800000000 -0.11949518 -0.023206618 0.0076116649 -0.87483406 0.0072526457 -0.87479067 -0.12250461 0.0081231203
16960000000 -0.11107317 0.018079745 -0.26586396 -0.82888657 -0.26616225 -0.8287434 -0.099517219 0.043245737
17120000000 -0.071932405 0.034010563 -0.50450969 -0.71099836 -0.50472873 -0.71075439 -0.060003988 0.050441582
17280000000 -0.053364381 0.034739342 -0.71100956 -0.52011877 -0.71114713 -0.5198344 -0.035515841 0.045963217
17440000000 -0.035984416 0.028932776 -0.84178406 -0.26671451 -0.84181416 -0.26639 -0.012995129 0.033628181
17600000000 -0.026935212 0.015788233 -0.88332546 0.014717361 -0.88331497 0.01505926 0.0016447324 0.012278261
17760000000 -0.028937854 0.0029645143 -0.83273041 0.29425979 -0.83259809 0.2945869 0.0035851116 -0.011318839
17920000000 -0.039450761 -0.0052452078 -0.6956346 0.54274607 -0.69541669 0.5429135 -0.0087549053 -0.033634529
18080000000 -0.053497002 0.00020604083 -0.48723316 0.73400462 -0.48689514 0.73407334 -0.026381312 -0.046546288
18240000000 -0.063455887 0.015089397 -0.23000865 0.84853262 -0.22972396 0.8484875 -0.049575523 -0.049533542
18400000000 -0.061016236 0.035966974 0.049067222 0.8764354 0.04938459 0.87635702 -0.068100184 -0.040336289
18560000000 -0.047026213 0.055584475 0.32205701 0.8154512 0.32232547 0.81529832 -0.083708003 -0.02698938
18720000000 -0.02199726 0.063551277 0.56209809 0.67219299 0.5622927 0.67199022 -0.087203458 -0.0083685769
18880000000 0.0039800699 0.06229312 0.74470919 0.46044686 0.74475348 0.46029326 -0.086464591 0.0095532425
19040000000 0.028865406 0.039259013 0.8516922 0.20208751 0.85162866 0.20195009 -0.077812679 0.018433103
19200000000 0.042093974 0.010702117 0.87154275 -0.076865256 0.87147582 -0.077019438 -0.071305208 0.023957457
19360000000 0.038542815 -0.021895271 0.80229539 -0.34779018 0.80215353 -0.34800246 -0.066766232 0.025166966
19520000000 0.017782928 -0.050903402 0.65073609 -0.58303022 0.65051603 -0.58324176 -0.067793816 0.026511194
19680000000 -0.015611186 -0.06656386 0.4327063 -0.75783467 0.4325307 -0.7579031 -0.071843833 0.03029751
19840000000 -0.052703153 -0.064838603 0.17096493 -0.85432529 0.1708342 -0.85429442 -0.074576423 0.040265761
20000000000 -0.085503452 -0.046275958 -0.10684181 -0.86281765 -0.10702115 -0.86273658 -0.074646331 0.054608364
20160000000 -0.10337371 -0.016252637 -0.37236801 -0.78377962 -0.37257349 -0.78367305 -0.065444559 0.070965134
20320000000 -0.1056307 0.020198984 -0.59899271 -0.62565374 -0.59912038 -0.62548363 -0.05110316 0.084336348
20480000000 -0.090140335 0.050596483 -0.76457357 -0.40459457 -0.76466769 -0.4043729 -0.030068047 0.088503532
20640000000 -0.065541208 0.067808859 -0.85214067 -0.14233857 -0.852144 -0.14214095 -0.0082715126 0.084335737
20800000000 -0.041825805 0.070168935 -0.85098988 0.13507299 -0.85090429 0.13531411 0.0086383848 0.068392873
20960000000 -0.027027205 0.062402483 -0.75683147 0.39517376 -0.75666583 0.39530641 0.0080473311 0.05068839
21120000000 -0.0059098229 0.068979003 -0.60007137 0.59159833 -0.5998807 0.59173405 0.013251103 0.055289272
21280000000 0.010980679 0.033856131 -0.39339066 0.76487923 -0.39323384 0.76492113 0.022005675 0.029442834
21440000000 -0.00066822069 0.011179428 -0.12834725 0.85378134 -0.12816545 0.85369122 0.0067448043 0.014926354
21600000000 -0.018460188 0.0026340515 0.15003017 0.85068685 0.15012084 0.85059798 -0.0099917231 0.014732052
21760000000 -0.036466137 0.008693181 0.41185781 0.75870192 0.41200304 0.75851977 -0.022431377 0.023103919
21920000000 -0.047591325 0.022531893 0.63023484 0.58856857 0.63031298 0.58834237 -0.025000017 0.036746964
22080000000 -0.049092118 0.040175974 0.7827909 0.35855553 0.78281957 0.35833794 -0.017844567 0.048964176
22240000000 -0.041371465 0.053586438 0.85479343 0.093021385 0.8547008 0.092742532 -0.0028218469 0.05404539
22400000000 -0.028083485 0.059941594 0.83941442 -0.18128671 0.83933002 -0.18159908 0.013384575 0.0479469
22560000000 -0.011918417 0.058337796 0.73825949 -0.43641546 0.73805696 -0.43664449 0.022854596 0.036721222
22720000000 -0.0019285635 0.04950992 0.56240153 -0.64656043 0.56220448 -0.6466521 0.024694575 0.019904926
22880000000 -0.00097314426 0.038672719 0.32861584 -0.79103047 0.3283689 -0.79104674 0.015523682 0.0047181076
23040000000 -0.0086248983 0.03111691 0.060913146 -0.85375965 0.060645945 -0.85367411 -0.0031413878 -0.0044140276
23200000000 -0.02325817 0.034389101 -0.21325707 -0.82773495 -0.21345958 -0.82765561 -0.026322834 -0.00069918833
23360000000 -0.03509644 0.044588394 -0.46430466 -0.71559238 -0.46448058 -0.71542388 -0.046195369 0.018780725
23520000000 -0.039585758 0.064887099 -0.66577566 -0.52899408 -0.66580874 -0.52884352 -0.051317524 0.048621003
23680000000 -0.029395252 0.090882704 -0.79600602 -0.28872859 -0.79600692 -0.28854129 -0.04212603 0.081780791
23840000000 -0.004430146 0.1131064 -0.84279311 -0.02108977 -0.84271204 -0.020922113 -0.015287601 0.11026379
24000000000 0.03424282 0.12602355 -0.80139595 0.24626373 -0.80134541 0.24634795 0.028429082 0.12530248
24160000000 0.080474809 0.11992704 -0.6785689 0.48370129 -0.67836523 0.48377141 0.074422732 0.12357577
24320000000 0.12349934 0.095635779 -0.48859969 0.66871166 -0.48834634 0.66880196 0.12512733 0.096214779
24480000000 0.15642852 0.046916757 -0.25241101 0.78337193 -0.25221577 0.78335762 0.15804762 0.055245087
24640000000 0.16893813 -0.009403293 0.0052050874 0.81833905 0.0053771371 0.81832016 0.17577243 -0.0035240175
24800000000 0.16084467 -0.072614111 0.25947711 0.77221447 0.25957254 0.77208817 0.17191035 -0.064811118
24960000000 0.1299368 -0.12819219 0.48589161 0.65007067 0.48609579 0.64986295 0.14362352 -0.12192439
25120000000 0.082506999 -0.17047955 0.66124958 0.4643684 0.66133273 0.46413845 0.097288832 -0.16185708
25280000000 0.018951105 -0.19388396 0.77352297 0.23698086 0.77358472 0.2368331 0.046593606 -0.19153109
25440000000 -0.046836145 -0.19304736 0.80959624 -0.017989609 0.80959392 -0.018106913 -0.017390925 -0.19962969
25600000000 -0.10919996 -0.17239654 0.76283586 -0.27126226 0.76273441 -0.27148139 -0.07863801 -0.18865331
25760000000 -0.16154477 -0.13316552 0.63879097 -0.4976832 0.63852632 -0.49789062 -0.13469 -0.15694305
25920000000 -0.19738038 -0.080035701 0.44956824 -0.67333734 0.44924134 -0.67347604 -0.17714815 -0.10867367
26080000000 -0.21403171 -0.019866144 0.2147513 -0.78070819 0.21432528 -0.7807129 -0.2010987 -0.04951435
26240000000 -0.20863469 0.040885899 -0.042143513 -0.80919909 -0.042350732 -0.80905819 -0.20361516 0.013085392
26400000000 -0.1847308 0.095024966 -0.29577357 -0.75557244 -0.29602957 -0.75537264 -0.18497135 0.07183449
26560000000 -0.14403713 0.13802011 -0.52027041 -0.62410426 -0.52050257 -0.62378937 -0.14782496 0.11710071
26720000000 -0.095543981 0.16253968 -0.69238311 -0.42784786 -0.69255042 -0.42741206 -0.097752549 0.1477683
26880000000 -0.045347448 0.16574413 -0.79405463 -0.18651935 -0.79400039 -0.18604831 -0.041520491 0.15433021
27040000000 -0.0007286935 0.15389699 -0.81358075 0.076382324 -0.81339109 0.076815918 0.0093109142 0.14175868
27200000000 0.031460259 0.1279617 -0.74789262 0.33262771 -0.74759758 0.3329621 0.048020739 0.11035991
27360000000 0.053952385 0.093663454 -0.6025188 0.55530971 -0.60216427 0.55553335 0.065218672 0.073675141
27520000000 0.055917542 0.058270946 -0.39317453 0.7200681 -0.39282072 0.72007084 0.06453757 0.031927325
27680000000 0.04527209 0.028849375 -0.14096497 0.80807018 -0.14052737 0.80793959 0.049147099 0.0032083546
27840000000 0.027886843 0.013735937 0.12593363 0.81000495 0.12634495 0.80983245 0.025952566 -0.013600865
28000000000 0.0086956387 0.0093456767 0.37931111 0.72596222 0.3796874 0.72554493 0.004603785 -0.012119347
28160000000 -0.0062727723 0.014678278 0.59169245 0.56401646 0.59188348 0.56358308 -0.0090112211 0.00038944578
28320000000 -0.013747159 0.020205455 0.73965764 0.34299332 0.7396571 0.34268147 -0.0068360232 0.012380209
28480000000 -0.010022213 0.021136824 0.80882549 0.086731367 0.80869579 0.086282879 -0.00051509665 0.01309571
28640000000 -0.012161441 0.014721288 0.79201484 -0.17792402 0.79177332 -0.17829509 0.0073673534 -0.00035371908
28800000000 -0.019997327 0.0033113742 0.69010675 -0.42273617 0.68978155 -0.42300078 0.0021379781 -0.020942925
28960000000 -0.044221379 -0.0043198378 0.51482707 -0.62088734 0.51444238 -0.62099028 -0.021092128 -0.043881584
29120000000 -0.076584131 0.0011010454 0.28445604 -0.75038117 0.28400949 -0.75035357 -0.061085988 -0.049854834
29280000000 -0.10961504 0.02563354 0.025800113 -0.79585409 0.025411548 -0.79574436 -0.10693463 -0.027034216
29440000000 -0.13294946 0.069224901 -0.22977164 -0.75461733 -0.23014644 -0.75432819 -0.14210096 0.021360634
29600000000 -0.13588099 0.12689415 -0.45416537 -0.63341856 -0.45439315 -0.63304675 -0.15199502 0.090835668
29760000000 -0.11001503 0.18729188 -0.6233021 -0.45126477 -0.62338942 -0.45082799 -0.12626673 0.16159232
29920000000 -0.058111534 0.23520793 -0.72550577 -0.2306841 -0.72553372 -0.23036875 -0.067471117 0.21808796
30080000000 0.013222625 0.2599664 -0.75438976 0.0065429038 -0.75419861 0.0068501853 0.016550018 0.24307187
30240000000 0.089480042 0.25590017 -0.71118081 0.23765808 -0.71091723 0.23791 0.10667622 0.23102728
30400000000 0.15976059 0.22335598 -0.60129666 0.4440093 -0.60094988 0.44421583 0.18658872 0.17638251
30560000000 0.21470614 0.16430962 -0.43448013 0.60761899 -0.43415049 0.60778069 0.23803869 0.096617348
30720000000 0.2400178 0.087375268 -0.22667222 0.71378118 -0.22627041 0.71378243 0.24585174 8.3457337e-005
30880000000 0.22926161 0.011567596 0.0035227723 0.75616962 0.003915526 0.75601786 0.21017568 -0.08495748
31040000000 0.19860512 -0.047021482 0.24727166 0.72753125 0.24770735 0.72725356 0.15326886 -0.14106308
31200000000 0.15771146 -0.088852115 0.47478721 0.61446327 0.47503325 0.61397564 0.081504978 -0.1713282
31360000000 0.11036315 -0.11147368 0.65359217 0.42893478 0.65366846 0.42834833 0.011164469 -0.16990976
31520000000 0.064866155 -0.12053175 0.76065558 0.19247143 0.76065308 0.19202529 -0.03950293 -0.1477142
31680000000 0.02472936 -0.12013435 0.78294975 -0.067019381 0.78274596 -0.067398377 -0.072791822 -0.11921389
31840000000 -0.014236415 -0.1154023 0.71739882 -0.32009402 0.7170645 -0.32036096 -0.093832076 -0.092345126
32000000000 -0.058056463 -0.10498191 0.57162791 -0.53679389 0.57118577 -0.53705502 -0.10982637 -0.075604334
32160000000 -0.10442425 -0.086088203 0.36116421 -0.69198656 0.36082101 -0.69210804 -0.13592625 -0.057923876
32320000000 -0.15180305 -0.045406286 0.11223242 -0.76659214 0.1118486 -0.7665664 -0.16809016 -0.030418228
32480000000 -0.18459609 0.018272836 -0.14411147 -0.75253999 -0.14442556 -0.75237882 -0.19776773 0.017651822
32640000000 -0.19402093 0.10014322 -0.37600043 -0.65418375 -0.3763063 -0.65397984 -0.21639384 0.087937288
32800000000 -0.16713394 0.1863738 -0.5565511 -0.48887947 -0.55670214 -0.48847634 -0.20123041 0.17041804
32960000000 -0.10509252 0.26171803 -0.66907704 -0.28164417 -0.66921633 -0.28119826 -0.15221661 0.25004399
33120000000 -0.014981166 0.30667412 -0.71027452 -0.057867248 -0.71027488 -0.057407878 -0.069204621 0.30697215
33280000000 0.087903999 0.31416598 -0.68302351 0.16103067 -0.68289757 0.1613538 0.034708038 0.32599404
33440000000 0.18638447 0.28502619 -0.593934 0.35586986 -0.59376794 0.35603842 0.14307539 0.30712327
33600000000 0.26843119 0.22171798 -0.4569827 0.51461631 -0.45668069 0.5148387 0.23431659 0.24827188
33760000000 0.32108366 0.13435937 -0.27911785 0.62830836 -0.27886868 0.62839383 0.29209942 0.15715037
33920000000 0.34246418 0.038638026 -0.077571601 0.68220025 -0.077166781 0.68216789 0.3119829 0.055212934
34080000000 0.32473904 -0.064482436 0.13099904 0.68561858 0.13141844 0.68547297 0.30636644 -0.043550979
34240000000 0.27223679 -0.14407563 0.34529066 0.62127131 0.34571853 0.62094945 0.26191932 -0.13803011
34400000000 0.20238589 -0.19639006 0.53370345 0.48656985 0.53403258 0.48614013 0.17924796 -0.20233022
34560000000 0.12294298 -0.22260429 0.6709671 0.29306316 0.67106575 0.29249439 0.094284177 -0.22543824
34720000000 0.048478361 -0.21681188 0.73846108 0.059968848 0.73837179 0.059539944 0.010242755 -0.21824537
34880000000 -0.014173168 -0.19450386 0.72451097 -0.18618923 0.72423214 -0.18664213 -0.055143595 -0.18453835
35040000000 -0.064845763 -0.15856621 0.62644017 -0.41722095 0.62602907 -0.41754583 -0.1049392 -0.1431146
35200000000 -0.10138762 -0.11269423 0.4557223 -0.60231423 0.45527899 -0.60249406 -0.13431659 -0.093975984
35360000000 -0.1238372 -0.057101529 0.23252091 -0.71976829 0.23198721 -0.71981066 -0.14978345 -0.04826938
35520000000 -0.12473854 0.00083410676 -0.016927775 -0.75659418 -0.017434241 -0.75644058 -0.14958219 -0.0033313157
35680000000 -0.10811564 0.054321494 -0.26427621 -0.70855564 -0.26474783 -0.70822531 -0.14386947 0.041948959
35840000000 -0.073542468 0.098569199 -0.48166338 -0.58215427 -0.48205391 -0.58176148 -0.12392075 0.080890924
36000000000 -0.024052665 0.12991466 -0.64452785 -0.39180568 -0.6447311 -0.39133579 -0.096598022 0.11988258
36160000000 0.035189521 0.13377409 -0.7363112 -0.15905091 -0.73629117 -0.15847048 -0.061868615 0.14218535
36320000000 0.083273105 0.11798137 -0.74726951 0.09063103 -0.747163 0.091119289 -0.020839905 0.15381598
36480000000 0.12498682 0.08636266 -0.67568916 0.3312397 -0.67533904 0.3316845 0.025574284 0.153134
36640000000 0.14497805 0.039659906 -0.52844137 0.53454429 -0.52812403 0.53485352 0.062436804 0.14261065
36800000000 0.14348817 -0.0031569719 -0.322979 0.67775095 -0.32254884 0.67784238 0.089955293 0.11138393
36960000000 0.12810348 -0.034723692 -0.08265695 0.74721414 -0.082219496 0.74716008 0.10773566 0.078265086
37120000000 0.10231875 -0.052882016 0.17312138 0.73397005 0.17347179 0.73372543 0.11443061 0.048765764
37280000000 0.082547896 -0.052272454 0.40976065 0.63206232 0.41016036 0.63173848 0.10808096 0.024762159
37440000000 0.072436474 -0.046992391 0.59569365 0.45245782 0.595882 0.4519735 0.095888026 0.0060300836
