!Agilent Technologies,N5227A,US51270464,A.10.00.00
!Agilent N5227A: A.10.00.00
!Date: Thursday, July 23, 2020 14:58:53
!Correction: S11(Full 2 Port(1,2)) 
!S21(Full 2 Port(1,2)) 
!S12(Full 2 Port(1,2)) 
!S22(Full 2 Port(1,2)) 
!S2P File: Measurements: S11, S21, S12, S22:
# Hz S  RI   R 50
8000000000 0.35066816 -0.17999807 0.40127513 0.47564495 0.40137452 0.47541547 0.39781311 -0.12844525
8160000000 0.093871027 -0.05287087 0.57491022 -0.316598 0.57482833 -0.31676808 0.14733599 -0.07042399
8320000000 -0.22611885 -0.077680007 0.16861546 -0.65885025 0.16835086 -0.65882617 -0.20423093 -0.10597844
8480000000 -0.15793407 0.22770967 -0.57425016 -0.4348726 -0.57432359 -0.43461072 -0.15278052 0.22331326
8640000000 0.10027896 0.28104046 -0.65913361 0.29547212 -0.65899259 0.29571161 0.12023719 0.26991209
8800000000 0.19084334 0.07016883 -0.070038415 0.74235928 -0.069811322 0.74232048 0.19554177 0.04664956
8960000000 0.051178068 -0.007865984 0.63660657 0.42232966 0.63663131 0.42206275 0.04903613 -0.016295027
9120000000 0.010307307 0.040949054 0.67100948 -0.35485098 0.67087251 -0.35502702 0.019671114 0.034023501
9280000000 -0.017232163 0.028084511 0.017216811 -0.76149964 0.016998952 -0.76146752 -0.00998055 0.030406006
9440000000 -0.063767351 0.10362102 -0.64081514 -0.36409059 -0.64091915 -0.36391574 -0.044812441 0.11402547
9600000000 0.034094278 0.17719029 -0.63264018 0.36259618 -0.63250953 0.36279896 0.08490698 0.14666632
9760000000 0.14456518 0.21129708 -0.065553084 0.60370207 -0.065384343 0.60380268 0.1389385 0.17467976
9920000000 0.069445647 0.024405772 0.57723838 0.46106115 0.57739115 0.46090195 0.06347838 0.0067216465
10080000000 0.06158977 0.12000236 0.68309963 -0.29215011 0.68298501 -0.29241014 0.078394443 0.099627301
10240000000 0.12260102 0.070261054 0.089726895 -0.73553449 0.089461908 -0.73553354 0.12353958 0.012876998
10400000000 0.048266988 0.056636374 -0.59451634 -0.43423349 -0.59459627 -0.43403828 0.0033589348 0.017516943
10560000000 0.11055458 0.18785523 -0.65736562 0.25673339 -0.6572634 0.2569584 0.076571867 0.19430293
10720000000 0.25139797 0.051951516 -0.1295274 0.69713277 -0.1292875 0.69715059 0.24688846 0.067732863
10880000000 0.13399087 -0.078164093 0.5395273 0.48519495 0.5396682 0.48495099 0.14175449 -0.072550692
11040000000 0.071856648 0.038859684 0.69266075 -0.23287147 0.6925 -0.23313089 0.080637015 0.038415108
11200000000 0.22732277 0.01864052 0.14804782 -0.69311678 0.14775348 -0.693097 0.23396477 0.018821921
11360000000 0.17754111 -0.18072218 -0.49659824 -0.4919937 -0.4967925 -0.49170867 0.20658076 -0.16909692
11520000000 -0.029553289 -0.15184414 -0.69540733 0.16139627 -0.69523627 0.16170408 0.034273997 -0.18072557
11680000000 -0.023346843 0.010994517 -0.21597157 0.69204408 -0.21560009 0.69199646 0.0029188276 -0.084004156
11840000000 0.05915194 0.00083451642 0.48624939 0.53782082 0.48642752 0.53748411 0.013606333 -0.069030926
12000000000 0.046001531 0.0012122199 0.70797366 -0.14605816 0.70780343 -0.14638317 0.01082843 -0.010312582
12160000000 0.12970747 0.01487749 0.22798264 -0.67397678 0.22766775 -0.67399156 0.12684666 -0.0055995751
12320000000 0.16340522 -0.14232206 -0.44411248 -0.53181487 -0.44432747 -0.53155833 0.14885005 -0.16849969
12480000000 -0.023717673 -0.21936069 -0.6813215 0.090513937 -0.68115431 0.090834722 -0.021910232 -0.2381482
12640000000 -0.14560045 -0.052481122 -0.27991179 0.63531256 -0.27960238 0.63535309 -0.13734092 -0.11949765
12800000000 -0.048633862 0.08653494 0.41277495 0.5596621 0.41295454 0.55941159 -0.11057149 0.0079900995
12960000000 0.097873248 0.090863325 0.64298952 -0.092932492 0.64290327 -0.093166225 0.02561607 0.081786148
13120000000 0.098409571 -0.04898379 0.3091262 -0.56043816 0.30886316 -0.56052279 0.064786546 -0.03953705
13280000000 -0.010607907 -0.039503034 -0.2535392 -0.59739745 -0.25376549 -0.59725368 -0.038307261 -0.07634367
13440000000 0.045403767 -0.020469239 -0.69087607 -0.055891626 -0.69083315 -0.055575013 -0.022472853 -0.029934859
13600000000 0.087488741 -0.0085972836 -0.38574606 0.575414 -0.38545826 0.575508 0.053076252 0.010606878
13760000000 0.16467336 -0.11113339 0.29586944 0.60678858 0.29606324 0.60659939 0.13892749 -0.12379153
13920000000 0.044221595 -0.27107236 0.65092975 0.070085801 0.65092987 0.069852069 -0.013225603 -0.27329543
14080000000 -0.17617249 -0.19697534 0.41317099 -0.5059635 0.41291299 -0.50609916 -0.21357386 -0.17013334
14240000000 -0.18603739 0.014959122 -0.20883152 -0.63209766 -0.20908336 -0.63191986 -0.20009086 0.028915446
14400000000 -0.03607095 0.0830383 -0.664976 -0.14758407 -0.66496778 -0.14726312 -0.062233485 0.084596373
14560000000 0.04847141 0.030192833 -0.4654265 0.50036031 -0.4651961 0.5005371 0.026921712 0.046110567
14720000000 0.087484263 -0.051603254 0.19262101 0.64940554 0.19284301 0.64930207 0.083078556 -0.044608042
14880000000 0.032822415 -0.16888747 0.63877249 0.17173809 0.63880378 0.17146061 0.022449255 -0.17557448
15040000000 -0.13761795 -0.15329309 0.48330909 -0.44614753 0.48310071 -0.44631928 -0.14108717 -0.16244958
15200000000 -0.15485927 0.012911622 -0.12199903 -0.65162414 -0.12229962 -0.65150535 -0.17146888 -0.024245659
15360000000 -0.03950784 0.033235949 -0.62781769 -0.23339699 -0.62791085 -0.2331588 -0.087034971 0.010270937
15520000000 -0.060662672 -0.015383108 -0.51537764 0.4067871 -0.51535213 0.40699741 -0.093121797 -0.023439569
15680000000 -0.080437347 0.036973342 0.075197674 0.66060317 0.075299568 0.66076922 -0.11577728 -0.0069491337
15840000000 0.0037567897 0.062551096 0.60439646 0.27862889 0.60454702 0.27863044 -0.099543504 0.030257881
16000000000 0.017828586 -0.022795988 0.55074698 -0.37343344 0.55082077 -0.37359488 -0.079571798 0.028426833
16160000000 -0.05364427 -0.013322295 -0.03466047 -0.66158563 -0.034820948 -0.66168863 -0.083978817 0.035985038
16320000000 -0.018505964 0.047190975 -0.58091265 -0.31236726 -0.58108914 -0.31218851 -0.067768045 0.055729073
16480000000 0.034254003 0.0060043675 -0.56685656 0.33318222 -0.56683958 0.33338282 -0.038879849 0.05692257
16640000000 0.0037668911 -0.026882777 -0.007616281 0.65526265 -0.0074556074 0.65539283 -0.021307781 0.037766658
16800000000 0.0015987416 -0.016695322 0.55332631 0.34027952 0.55356205 0.34019184 -0.019332161 0.011034498
16960000000 -4.3148899e-005 -0.046361584 0.56634986 -0.29532608 0.56639099 -0.29546118 -0.055904783 0.0060783969
17120000000 -0.054946233 -0.040278655 0.065338284 -0.61325639 0.065290444 -0.61333293 -0.067725331 0.045052666
17280000000 -0.056423858 0.020813087 -0.50138026 -0.39650464 -0.50152868 -0.39652959 -0.027719311 0.072123766
17440000000 0.014168914 0.040370144 -0.60085899 0.23069465 -0.60090655 0.23090789 0.019927312 0.058894169
17600000000 0.063972779 -0.02053912 -0.11014055 0.63194019 -0.10997295 0.63212579 0.060110129 0.0041383188
17760000000 0.049511697 -0.11508407 0.48016095 0.41450188 0.48041174 0.41442111 0.038544558 -0.1010446
17920000000 -0.071947746 -0.18540797 0.59190041 -0.18960834 0.59195572 -0.18985708 -0.11099479 -0.15253063
18080000000 -0.22622804 -0.087437555 0.15444259 -0.5911631 0.15422723 -0.59125704 -0.24176738 -0.022031303
18240000000 -0.19651459 0.10140662 -0.41425481 -0.45052063 -0.41445473 -0.45039359 -0.17885076 0.14701678
18400000000 -0.045308199 0.11858759 -0.60999262 0.11633678 -0.61002719 0.11657219 -0.044814449 0.14157996
18560000000 -0.056192283 0.03025749 -0.21133071 0.59055525 -0.21114902 0.59067237 -0.06276951 0.07162492
18720000000 -0.11357977 0.12399405 0.39132681 0.47225064 0.39155355 0.47219601 -0.10347578 0.16011092
18880000000 0.042125672 0.2210182 0.59269297 -0.076597802 0.59279954 -0.076726362 0.028697275 0.24900468
19040000000 0.19849978 0.076430708 0.25748658 -0.53826493 0.25742221 -0.53841197 0.18570122 0.15157557
19200000000 0.13019438 -0.093300581 -0.3235397 -0.51290911 -0.32368869 -0.51293534 0.17496622 -0.01588919
19360000000 0.012956139 -0.080204614 -0.6153143 0.013072467 -0.61531675 0.013236532 0.07132677 -0.058582865
19520000000 0.035362862 -0.036687959 -0.30108294 0.53644454 -0.30108073 0.53655279 0.058267143 -0.024444526
19680000000 0.060803659 -0.11630144 0.30220327 0.52557713 0.30239624 0.52568644 0.088823736 -0.08840698
19840000000 -0.052122857 -0.19897315 0.59381354 0.017107727 0.59390253 0.016981384 -0.013125797 -0.18838309
20000000000 -0.207416 -0.13166285 0.32643089 -0.48556027 0.32632908 -0.4856742 -0.18895786 -0.12432896
20160000000 -0.22894135 0.03619108 -0.23236018 -0.53540939 -0.23251095 -0.53547484 -0.20265818 0.061883554
20320000000 -0.11588278 0.11487841 -0.58536971 -0.087939791 -0.58548301 -0.087781429 -0.071506076 0.12169041
20480000000 -0.064411558 0.067401662 -0.37977728 0.46248373 -0.37968254 0.46259296 -0.03829683 0.047573436
20640000000 -0.10110533 0.092790626 0.20219381 0.55666238 0.2022763 0.55657589 -0.10004374 0.082045712
20800000000 -0.027526964 0.17766014 0.56964815 0.11648054 0.56970495 0.11642213 -0.029019292 0.17866939
20960000000 0.1092441 0.11493093 0.39807382 -0.41494831 0.39800221 -0.41515219 0.10680702 0.12991583
21120000000 0.084581569 -0.019995095 -0.13220584 -0.56486738 -0.13232912 -0.56485933 0.097778372 -0.00011959741
21280000000 0.0061661098 -0.038710434 -0.5660035 -0.17954041 -0.56608349 -0.17943694 0.028611243 -0.026767973
21440000000 -0.017359346 -0.01102783 -0.44425675 0.39629334 -0.44421202 0.39633185 -0.0055732331 -0.0044116378
21600000000 -0.024578264 -0.0031310185 0.111693 0.58375525 0.11167111 0.58380258 -0.011746276 0.015643291
21760000000 -0.025654066 0.023396313 0.55552363 0.20384318 0.55560106 0.20380284 -0.0020531109 0.034211498
21920000000 0.012278927 0.025792981 0.45903039 -0.36540636 0.45904362 -0.36557668 0.026675783 0.027700596
22080000000 0.014808809 -0.020910125 -0.069682315 -0.57689404 -0.069842085 -0.57698566 0.032759547 -0.012355811
22240000000 -0.024872664 -0.035294119 -0.52980441 -0.24691857 -0.52995592 -0.2468012 0.006842169 -0.03037628
22400000000 -0.05455517 -0.017768901 -0.48689321 0.32512593 -0.48688862 0.32532188 -0.024900664 -0.035903946
22560000000 -0.052615244 0.011123084 0.025051912 0.58257216 0.025263868 0.58269316 -0.048967764 -0.012983302
22720000000 -0.03462965 0.013671746 0.50899822 0.28217137 0.50922316 0.28204429 -0.046112418 0.0044015981
22880000000 -0.04353705 -0.0014601916 0.50278479 -0.28764942 0.50283617 -0.28790244 -0.054034892 0.0032114582
23040000000 -0.075938262 0.018665662 0.013981493 -0.57555437 0.013803181 -0.5756799 -0.081858724 0.026470331
23200000000 -0.060949206 0.077412464 -0.48055896 -0.30763921 -0.48070058 -0.30760181 -0.069551244 0.080968522
23360000000 0.0050152312 0.066822506 -0.50789994 0.24949621 -0.50790161 0.24966465 -0.01869043 0.094748326
23520000000 0.00070440286 0.0082351696 -0.047232941 0.56107205 -0.047086082 0.56115562 0.0098115727 0.068796597
23680000000 -0.036096472 0.019470459 0.44985414 0.31668779 0.45005247 0.3165769 0.016763732 0.059013955
23840000000 -0.017110614 0.0047881408 0.48995939 -0.19876404 0.48997316 -0.1989399 0.024446549 0.012050286
24000000000 -0.089965969 0.010407669 0.10686326 -0.53028125 0.10675995 -0.53040487 -0.059785586 0.015662028
24160000000 -0.095702112 0.10894275 -0.40588927 -0.36374983 -0.40609637 -0.36372343 -0.053040382 0.12320644
24320000000 0.015257204 0.16818398 -0.51650143 0.15638834 -0.51659745 0.15660214 0.072859362 0.15230633
24480000000 0.12590867 0.073929437 -0.14007412 0.51817465 -0.14000128 0.5183779 0.15572733 0.043401293
24640000000 0.081956625 -0.060184587 0.36786962 0.3942627 0.36806816 0.39436466 0.097782932 -0.079784058
24800000000 -0.043145444 -0.07306654 0.5308463 -0.10971888 0.53098601 -0.10982156 -0.016283313 -0.093878664
24960000000 -0.10108699 0.016118383 0.17928039 -0.51051116 0.17915589 -0.51072073 -0.090283081 -0.02575399
25120000000 -0.062920801 0.10965321 -0.34150264 -0.41240215 -0.3417258 -0.41240504 -0.089038484 0.077898569
25280000000 0.047007229 0.13799119 -0.51950705 0.076849461 -0.51961619 0.077004537 0.0099296207 0.14557032
25440000000 0.15461019 0.042964555 -0.20873255 0.47279581 -0.20866711 0.4729555 0.14233124 0.089846514
25600000000 0.1103539 -0.11846628 0.29014313 0.42017102 0.29041937 0.42019019 0.15160044 -0.074490555
25760000000 -0.057468612 -0.1744633 0.50219357 -0.023108041 0.50236529 -0.023292547 0.0054873014 -0.17419969
25920000000 -0.21209553 -0.068084829 0.24535768 -0.42754263 0.24528819 -0.4277873 -0.17003524 -0.1027206
26080000000 -0.20932646 0.14236775 -0.23071036 -0.43965751 -0.23094405 -0.43971354 -0.20386058 0.11151472
26240000000 -0.025556419 0.24677108 -0.49676049 -0.036973488 -0.49693891 -0.036822889 -0.030634545 0.23818825
26400000000 0.14611866 0.1462841 -0.29708317 0.40618721 -0.29703251 0.40645593 0.14798006 0.15854084
26560000000 0.13800645 -0.022014668 0.19486077 0.47382727 0.19514814 0.4738124 0.16070658 -0.0050082165
26720000000 0.020061774 -0.067560047 0.51577812 0.075367592 0.51591092 0.075144075 0.061695714 -0.068420954
26880000000 -0.032810099 -0.016253341 0.32867023 -0.40996763 0.32854104 -0.41018334 -0.00061333936 -0.03185603
27040000000 -0.026387829 0.01274033 -0.18683006 -0.4915165 -0.18714137 -0.49156231 0.0067118239 0.010092087
27200000000 -0.029363317 0.025693173 -0.51625597 -0.090452597 -0.51643103 -0.090165347 0.038754381 0.0097079789
27360000000 -0.010712296 0.042325318 -0.34237155 0.39471892 -0.34223628 0.39497074 0.044726197 -0.020267295
27520000000 0.0082432292 0.030779716 0.16139083 0.49612036 0.16158982 0.4961518 0.016886596 -0.040517818
27680000000 -0.0019861734 0.01212051 0.50618488 0.11675952 0.5063765 0.11657312 0.0015760893 -0.030198993
27840000000 -0.012228173 0.021275477 0.36069131 -0.37036917 0.36057633 -0.37060964 -0.00030108856 -0.031274222
28000000000 -0.0048922375 0.024756024 -0.13052218 -0.49951598 -0.13079476 -0.49947709 -0.0097914785 -0.033030439
28160000000 -0.0067098727 0.0078489659 -0.49360538 -0.14389066 -0.49372572 -0.14366999 -0.015055288 -0.034919765
28320000000 -0.045558922 0.008101251 -0.37375003 0.34632814 -0.37372997 0.34649783 -0.038712367 -0.049609046
28480000000 -0.056689803 0.054463971 0.10345268 0.4945741 0.1036594 0.49465963 -0.086293042 -0.024259323
28640000000 -0.013158024 0.077365234 0.47459275 0.16638593 0.4747225 0.1661683 -0.080834128 0.029643562
28800000000 -0.0070028701 0.037102155 0.38403705 -0.32124096 0.38393196 -0.32143769 -0.056913279 0.029736556
28960000000 -0.060564853 0.065459453 -0.080107234 -0.48907349 -0.08037588 -0.48910233 -0.087024778 0.04674907
29120000000 -0.013039345 0.15101063 -0.44981527 -0.18223552 -0.45003617 -0.18202218 -0.049961384 0.12790693
29280000000 0.096565068 0.12036712 -0.39320457 0.28476292 -0.39314371 0.28502256 0.06645339 0.11324554
29440000000 0.11112268 0.013328958 0.041104466 0.48853633 0.041331626 0.48860079 0.091152988 -0.0011111005
29600000000 0.044088081 -0.042733666 0.44405025 0.2122017 0.44420201 0.21204253 0.016165301 -0.059764549
29760000000 -0.038531575 -0.038722791 0.40153894 -0.27510777 0.40144232 -0.27533191 -0.064753272 -0.053269513
29920000000 -0.10600974 0.054756127 -0.032073818 -0.47241706 -0.032265302 -0.47251213 -0.14097372 0.024284543
30080000000 -0.021216478 0.19125479 -0.4055495 -0.21253067 -0.40571478 -0.21234648 -0.098929808 0.1711925
30240000000 0.16299146 0.16201064 -0.38956502 0.22107184 -0.38950717 0.22130674 0.084566355 0.20202127
30400000000 0.22598791 -0.02682077 -0.023885639 0.44771859 -0.023736266 0.44784212 0.20104963 0.036500748
30560000000 0.10086396 -0.17865717 0.37201703 0.2587617 0.37225786 0.25864124 0.11573068 -0.13986483
30720000000 -0.081064478 -0.17552857 0.41351587 -0.18818375 0.41356996 -0.18836479 -0.071949415 -0.15971495
30880000000 -0.19028093 -0.046713851 0.053563777 -0.44404265 0.053332049 -0.44408816 -0.18279834 -0.024215013
31040000000 -0.16486312 0.097351611 -0.34884873 -0.28289554 -0.34905228 -0.28279054 -0.13003334 0.11439635
31200000000 -0.05944052 0.13427895 -0.42929283 0.15548684 -0.42928872 0.15569164 -0.021704586 0.11614888
31360000000 -0.047169302 0.097563058 -0.079301849 0.45387432 -0.079070523 0.45391932 -0.038814832 0.052073751
31520000000 -0.059246179 0.15335681 0.34865913 0.28936863 0.34886083 0.2892305 -0.0781812 0.11967219
31680000000 0.028696509 0.180847 0.42021152 -0.14766712 0.42017215 -0.1479267 0.0078510568 0.158169
31840000000 0.040035442 0.12454237 0.080108143 -0.43786538 0.079912812 -0.43791428 0.016010921 0.098707028
32000000000 0.021336526 0.20234168 -0.32856384 -0.26548395 -0.32876912 -0.26538041 -0.021141388 0.18467367
32160000000 0.20018347 0.24495134 -0.36473304 0.12345025 -0.36476779 0.12366161 0.1561992 0.2620765
32320000000 0.35082904 0.049581423 -0.10958658 0.35124514 -0.1094861 0.35140347 0.33948249 0.090454996
32480000000 0.25379133 -0.20875508 0.2275179 0.30119148 0.22770144 0.30113423 0.29091936 -0.17547192
32640000000 -0.017771309 -0.26061064 0.39643276 -0.030921485 0.39661857 -0.03118469 0.057266831 -0.28649172
32800000000 -0.18579103 -0.086524323 0.18243699 -0.36895409 0.18230094 -0.36921614 -0.1496314 -0.19972895
32960000000 -0.14927909 0.10396837 -0.23018353 -0.34999338 -0.23042221 -0.35002837 -0.2155491 -0.011041722
33120000000 -0.01967483 0.15514877 -0.42459029 0.021541022 -0.42472067 0.021676391 -0.12259404 0.11175821
33280000000 0.029730791 0.10689884 -0.19522111 0.38486812 -0.195041 0.38503483 -0.04706106 0.080950618
33440000000 0.018447142 0.12466764 0.2384963 0.35683969 0.23875143 0.35680073 -0.087790705 0.089678407
33600000000 0.094737075 0.16135409 0.41969368 -0.024048664 0.41983983 -0.024301533 -0.049325563 0.18522044
33760000000 0.1584425 0.084361888 0.19825484 -0.3697871 0.19820382 -0.36998114 0.058306877 0.16822223
33920000000 0.1069076 0.048773766 -0.22307648 -0.36140817 -0.22322638 -0.36133447 0.048125658 0.10870033
34080000000 0.14404875 0.10815089 -0.41405255 0.016194789 -0.4140718 0.016433118 0.064302646 0.17202339
34240000000 0.25639635 0.03072801 -0.1976319 0.34555721 -0.19743228 0.34576279 0.20454763 0.13792565
34400000000 0.22009121 -0.13456054 0.18102771 0.35542178 0.18129215 0.35538414 0.21977574 -0.04237752
34560000000 0.06153791 -0.18566623 0.409096 0.032708734 0.40926009 0.032499094 0.068361998 -0.12977193
34720000000 -0.048708316 -0.096703522 0.23612271 -0.3448571 0.23608898 -0.34499532 -0.061746914 -0.049967192
34880000000 -0.057839334 0.033629876 -0.18405069 -0.37189236 -0.18428186 -0.3718445 -0.070765309 0.085311614
35040000000 0.063643649 0.12901086 -0.40225545 -0.024820849 -0.40229926 -0.024548981 0.035280105 0.18177572
35200000000 0.22810996 0.043669883 -0.22064407 0.31897515 -0.22044395 0.31924719 0.20685276 0.13677235
35360000000 0.22067791 -0.162523 0.14706564 0.34837499 0.14739701 0.34832805 0.25809062 -0.068872899
35520000000 0.024424024 -0.26169533 0.37073836 0.063591316 0.37092939 0.063279852 0.10187358 -0.22834115
35680000000 -0.16155025 -0.14738728 0.25285783 -0.28376997 0.25267041 -0.28399718 -0.12117132 -0.17816268
35840000000 -0.16880308 0.066860169 -0.11295135 -0.36685005 -0.11322461 -0.36685517 -0.19482666 0.021804892
36000000000 0.0067997002 0.18883163 -0.3734656 -0.091977097 -0.37359673 -0.091707148 -0.08237578 0.19391768
36160000000 0.19200613 0.10302665 -0.27306694 0.27220923 -0.27287677 0.27249062 0.10629106 0.19723549
36320000000 0.21001409 -0.074071042 0.092544824 0.37861478 0.09291859 0.37870255 0.20245153 0.046932727
36480000000 0.10053556 -0.16389227 0.37950733 0.11568149 0.37966958 0.11545108 0.12808765 -0.086849622
36640000000 -0.0023839392 -0.13760018 0.29551658 -0.27531108 0.29546905 -0.27560228 0.0080534332 -0.069001123
36800000000 -0.02359383 -0.066563711 -0.094641998 -0.39763734 -0.094967768 -0.39764994 -0.011742708 0.00068507012
36960000000 0.012633624 -0.036846314 -0.39492121 -0.11231551 -0.3951419 -0.11210872 0.013764905 0.019936306
37120000000 0.0330415 -0.054636717 -0.28846526 0.28892234 -0.28838587 0.28916869 0.027300032 0.033714339
37280000000 0.031495415 -0.067549862 0.11059596 0.38714501 0.11083966 0.38717541 0.067145132 0.043074273
37440000000 0.0396742 -0.077979505 0.37950334 0.088645831 0.37958306 0.088432886 0.10199708 0.0092561832
