!Agilent Technologies,N5227A,US51270464,A.10.00.00
!Agilent N5227A: A.10.00.00
!Date: Thursday, July 23, 2020 14:57:05
!Correction: S11(Full 2 Port(1,2)) 
!S21(Full 2 Port(1,2)) 
!S12(Full 2 Port(1,2)) 
!S22(Full 2 Port(1,2)) 
!S2P File: Measurements: S11, S21, S12, S22:
# Hz S  RI   R 50
8000000000 -0.51466793 0.049846794 -0.094437093 -0.6849432 -0.094589263 -0.6849798 -0.52005798 0.057781406
8160000000 -0.55351526 0.10641775 -0.302744 -0.33058891 -0.30290681 -0.33074048 -0.57595146 0.13313256
8320000000 -0.38243929 0.54725796 -0.48419809 -0.31325045 -0.48440868 -0.31326997 -0.39419729 0.54862094
8480000000 -0.047357827 0.63265109 -0.62167788 -0.03760324 -0.62187886 -0.037495196 -0.081521653 0.63685036
8640000000 0.24041429 0.51938146 -0.60402024 0.29824603 -0.60411114 0.29843345 0.20185111 0.54222751
8800000000 0.3780331 0.26638108 -0.39306039 0.62739646 -0.39302212 0.62756705 0.35159326 0.30662683
8960000000 0.29392076 0.026907237 0.034450255 0.80435395 0.03454743 0.80448818 0.29015693 0.067727916
9120000000 0.095292129 -0.021023788 0.52558821 0.65614665 0.52577037 0.65622258 0.10961319 0.0019507605
9280000000 0.014964045 0.12373289 0.81219 0.21116617 0.81236619 0.21111922 0.020237505 0.13310537
9440000000 0.16576473 0.2381672 0.72592539 -0.30259973 0.7260778 -0.30277219 0.15257409 0.25292218
9600000000 0.40244424 -0.066278093 0.33210611 -0.4173747 0.33223885 -0.41755128 0.41244498 -0.02629938
9760000000 0.091131747 -0.021729995 0.29115608 -0.75711328 0.29119194 -0.75734359 0.091421537 -0.0034396758
9920000000 0.11247541 -0.038757857 -0.24183506 -0.80785018 -0.24203543 -0.80801314 0.11880336 -0.017248277
10080000000 0.049677681 -0.04297537 -0.66339743 -0.53483063 -0.66362274 -0.53480589 0.059046805 -0.030910524
10240000000 0.016801743 0.020916799 -0.85028201 -0.072676115 -0.8504709 -0.072561525 0.019502271 0.023691453
10400000000 0.050435681 0.074133031 -0.73260915 0.41044453 -0.7327292 0.4106231 0.045116477 0.079511978
10560000000 0.16069223 0.10832392 -0.42484805 0.6943056 -0.42489293 0.69451576 0.1573237 0.12278163
10720000000 0.20286986 -0.0089810705 0.020216104 0.82983607 0.020312859 0.82996917 0.20767653 0.011908114
10880000000 0.15256768 -0.095870927 0.46237218 0.69465858 0.46251541 0.69473553 0.16403961 -0.081716724
11040000000 0.066623271 -0.10565582 0.76754838 0.33909646 0.76773095 0.33908391 0.075478777 -0.10220031
11200000000 0.026485572 -0.053168334 0.83597165 -0.1236797 0.83610052 -0.12377115 0.012921649 -0.048734367
11360000000 0.063058831 0.01019552 0.6318633 -0.55951709 0.63185948 -0.55968553 0.044251975 0.031294167
11520000000 0.14639153 -0.00064512144 0.22671165 -0.80278891 0.22661066 -0.80289125 0.13768336 0.034992035
11680000000 0.19273719 -0.093073323 -0.23318286 -0.78659821 -0.23336038 -0.78661871 0.20426725 -0.057339635
11840000000 0.15078896 -0.20558509 -0.6030696 -0.53835416 -0.6032306 -0.53826481 0.17282657 -0.18525267
12000000000 0.036857389 -0.26729658 -0.78976929 -0.14301004 -0.78988242 -0.14289738 0.050693016 -0.26139805
12160000000 -0.091869235 -0.24572718 -0.74747711 0.29256558 -0.74753755 0.29279354 -0.095150635 -0.23731193
12320000000 -0.17796166 -0.15498981 -0.47901082 0.64840227 -0.47891596 0.64855695 -0.18903381 -0.12733114
12480000000 -0.19750832 -0.038927469 -0.047585797 0.80527484 -0.047451403 0.80534595 -0.19614604 0.0095024062
12640000000 -0.16101187 0.083263554 0.41118231 0.67295861 0.41137323 0.67298079 -0.13100116 0.12993428
12800000000 0.049997225 0.23393805 0.59368682 0.24148652 0.59381479 0.24142639 0.097426929 0.2417818
12960000000 0.11841193 -0.14814895 0.6958757 0.16447455 0.69608355 0.16439368 0.13160913 -0.14006913
13120000000 -0.036978818 -0.11870685 0.73322439 -0.32719159 0.73325658 -0.3273645 -0.037852477 -0.10659495
13280000000 -0.076731667 -0.073063746 0.42871481 -0.69509524 0.42869416 -0.69529629 -0.08620014 -0.03082468
13440000000 -0.091962092 -0.036285106 -0.02082637 -0.81948036 -0.020954778 -0.81958336 -0.076595955 0.040320776
13600000000 -0.098328881 0.0020117317 -0.4595933 -0.67853588 -0.45980158 -0.67853165 -0.029849082 0.086930208
13760000000 -0.088440992 0.052679941 -0.75034714 -0.3260316 -0.75049514 -0.32594076 0.028149143 0.099431641
13920000000 -0.042500235 0.10467845 -0.80603158 0.12509993 -0.80611891 0.12524733 0.08359874 0.087496527
14080000000 0.043000396 0.1260131 -0.61176234 0.53279489 -0.6117484 0.53295302 0.13466749 0.055856898
14240000000 0.13904971 0.081019081 -0.23332155 0.77043593 -0.23324107 0.77060026 0.17696732 -0.0021929312
14400000000 0.19196616 -0.031103268 0.20686696 0.76947588 0.206974 0.76956928 0.19255503 -0.08723747
14560000000 0.15503134 -0.15801826 0.57428151 0.54166764 0.57446206 0.54174441 0.15324938 -0.18090922
14720000000 0.041544482 -0.2316131 0.76707888 0.16051969 0.76724935 0.16052888 0.063252814 -0.2408594
14880000000 -0.078772664 -0.22591195 0.72874767 -0.25119942 0.728872 -0.251362 -0.04058487 -0.24946724
15040000000 -0.17728633 -0.13753282 0.50508493 -0.60071719 0.50513679 -0.6009295 -0.14359318 -0.18102333
15200000000 -0.17422937 -0.021741573 0.1152259 -0.78589171 0.11511477 -0.78607196 -0.16406217 -0.077770606
15360000000 -0.10715064 0.036368366 -0.32414255 -0.73189658 -0.32430041 -0.73196656 -0.11745345 -0.0054055946
15520000000 -0.062140889 0.02439153 -0.64957768 -0.4411757 -0.6497677 -0.44115716 -0.068595789 -0.0086693438
15680000000 -0.023464642 -0.0011672121 -0.80306661 -0.040962201 -0.8031776 -0.040811773 -0.030700965 -0.014874349
15840000000 -0.049428083 -0.031657774 -0.70103121 0.39582789 -0.70107514 0.39597687 -0.034926984 -0.051825218
16000000000 -0.081418112 -0.01530401 -0.38344327 0.70541471 -0.38331833 0.70554012 -0.066356055 -0.054617375
16160000000 -0.075210512 0.022422517 0.04729088 0.80026573 0.047433905 0.80034125 -0.080249272 -0.028336208
16320000000 -0.032387692 0.033631779 0.46375722 0.65324068 0.46390769 0.65323097 -0.06188013 -0.010192373
16480000000 -0.00022213777 -0.0052641728 0.73687243 0.30472779 0.7369591 0.30466449 -0.040898439 -0.023373792
16640000000 -0.01723332 -0.055087548 0.78386563 -0.13107422 0.78396517 -0.1311949 -0.04896453 -0.056083828
16800000000 -0.081268065 -0.074482881 0.58585143 -0.52370131 0.58584839 -0.52388161 -0.092229128 -0.070286177
16960000000 -0.14197883 -0.038410671 0.21005709 -0.73809224 0.20996794 -0.73825872 -0.14821573 -0.037390139
17120000000 -0.18594168 0.038334731 -0.16357464 -0.72227418 -0.1637069 -0.72237849 -0.18819778 0.039829172
17280000000 -0.14042611 0.12092086 -0.52810985 -0.55689204 -0.52826834 -0.55689889 -0.13433635 0.12490331
17440000000 -0.066169329 0.15872093 -0.75210029 -0.19468884 -0.75225508 -0.19464342 -0.047187198 0.15695487
17600000000 0.0070104548 0.14072531 -0.74612588 0.23266402 -0.7462551 0.2328454 0.038009256 0.12299966
17760000000 0.042073682 0.093838267 -0.51278937 0.59412289 -0.51277214 0.59433848 0.073184162 0.0490596
17920000000 0.041090019 0.05484163 -0.1222739 0.77794576 -0.12218436 0.77809954 0.046817798 -0.018463438
18080000000 0.030226907 0.038779616 0.3086977 0.72516024 0.30882448 0.72520149 -0.0046599712 -0.037233416
18240000000 0.027979961 0.035586044 0.64430743 0.45082119 0.64444429 0.45081872 -0.040588997 -0.014846737
18400000000 0.035268299 0.021431057 0.77792704 0.045601618 0.77806783 0.045483589 -0.03179419 0.016815817
18560000000 0.022374349 0.0064407666 0.69194531 -0.37065542 0.6919992 -0.37073839 -0.019982811 0.016507879
18720000000 0.0074897516 0.0019100534 0.39160869 -0.68014294 0.39159089 -0.68031776 -0.0092493659 0.0051040216
18880000000 -0.0082718236 0.012284299 -0.026066873 -0.78301847 -0.026071569 -0.78315037 -0.020004524 -0.0086185858
19040000000 -0.0083169304 0.028381916 -0.43368769 -0.65031642 -0.43370327 -0.65040141 -0.03890609 -0.0036460229
19200000000 0.0090369964 0.0429339 -0.70916134 -0.3240957 -0.70922345 -0.32421055 -0.047442719 0.020210393
19360000000 0.033942055 0.041921314 -0.77181202 0.097019218 -0.77191073 0.09701255 -0.029819788 0.044868454
19520000000 0.050834544 0.024248499 -0.60431474 0.48751131 -0.60443884 0.48762274 0.0046843872 0.047249358
19680000000 0.05391933 0.0040364219 -0.25678146 0.73122376 -0.25688049 0.73136801 0.031950761 0.018476518
19840000000 0.050788175 -0.011806902 0.16649827 0.75539815 0.16642651 0.75550288 0.031283427 -0.022707347
20000000000 0.047783986 -0.025711285 0.53834695 0.55268031 0.53839302 0.5527907 0.0003438587 -0.051222719
20160000000 0.04511087 -0.044267107 0.74543488 0.18525858 0.74561673 0.18532409 -0.038037136 -0.050755285
20320000000 0.030143786 -0.066241518 0.72846955 -0.23304437 0.7286948 -0.23299929 -0.06287878 -0.027538026
20480000000 0.00042172897 -0.073805667 0.498117 -0.58021116 0.49832645 -0.580311 -0.065627791 -0.00084824447
20640000000 -0.02316902 -0.062925652 0.11623402 -0.75580424 0.11637241 -0.75597322 -0.047485489 0.017696569
20800000000 -0.031214444 -0.044983417 -0.30122659 -0.70023304 -0.30125076 -0.70045656 -0.024517393 0.0089542829
20960000000 -0.024848236 -0.04227775 -0.6224134 -0.43144536 -0.62251598 -0.43159729 -0.027290246 -0.021120161
21120000000 -0.03817305 -0.048691001 -0.74334705 -0.044452999 -0.7434811 -0.044466492 -0.061774097 -0.029596616
21280000000 -0.040560942 -0.056057658 -0.66777527 0.35357067 -0.66801649 0.35354775 -0.078778058 -0.018846221
21440000000 -0.078303024 -0.060574841 -0.37661961 0.65506256 -0.37674814 0.65515989 -0.1078468 0.0035255793
21600000000 -0.11553357 -0.025661862 0.027302973 0.75251764 0.027230205 0.75264585 -0.11602417 0.048009146
21760000000 -0.11722682 0.038345952 0.41956076 0.62100744 0.41960686 0.62113047 -0.095659167 0.090253867
21920000000 -0.070256591 0.08661548 0.67831874 0.3040351 0.67843157 0.30411905 -0.049331568 0.11339543
22080000000 -0.003326975 0.0875412 0.72855127 -0.099093087 0.72871321 -0.099048436 0.0018162193 0.10136919
22240000000 0.013417661 0.027345281 0.58174288 -0.45309886 0.58185583 -0.4531244 0.0089614326 0.048364099
22400000000 -0.0017508672 0.0021207072 0.25290895 -0.70256722 0.2529785 -0.70272642 -0.0049203523 0.034128018
22560000000 -0.031182559 -0.002742911 -0.15969005 -0.72721589 -0.15963234 -0.72739053 -0.022340005 0.030503336
22720000000 -0.048512422 0.027597686 -0.51873845 -0.53297317 -0.51874089 -0.53309178 -0.036527596 0.048486609
22880000000 -0.028904805 0.060327698 -0.72025353 -0.17692143 -0.7203719 -0.17707288 -0.026125852 0.071637861
23040000000 0.010416834 0.069394819 -0.70241803 0.23256266 -0.7025001 0.23259403 -0.0013121328 0.081934258
23200000000 0.03898361 0.049199034 -0.4656651 0.56819391 -0.46582082 0.56825364 0.028602725 0.069571272
23360000000 0.036800653 0.024380794 -0.08187975 0.71394545 -0.081918694 0.71403569 0.033608627 0.050647397
23520000000 0.08285071 0.034432136 0.25954035 0.61314982 0.2594316 0.61331785 0.087150812 0.050006248
23680000000 0.077767201 -0.072088122 0.55290323 0.44008899 0.5529263 0.44024378 0.06660907 -0.066716783
23840000000 0.013939242 -0.10004454 0.71876991 0.075460903 0.71888691 0.07561779 -0.021399679 -0.088714883
24000000000 -0.038659323 -0.096577741 0.65078807 -0.32161072 0.65096551 -0.32155207 -0.087305754 -0.057275314
24160000000 -0.089325078 -0.073295057 0.37917382 -0.61790204 0.37930551 -0.61793202 -0.12693557 0.0018872226
24320000000 -0.12843724 -0.020069364 -0.0062042009 -0.72198147 -0.006119485 -0.72211015 -0.12628828 0.065170303
24480000000 -0.13415654 0.054421954 -0.38445532 -0.60584331 -0.38441628 -0.60601193 -0.10109391 0.12603752
24640000000 -0.08586894 0.13121457 -0.64163136 -0.30929273 -0.64171457 -0.30944639 -0.049739048 0.16765295
24800000000 0.0096243201 0.16233957 -0.70288551 0.074474849 -0.70306277 0.074422836 0.02249093 0.18504053
24960000000 0.1133396 0.12620299 -0.55322176 0.42970708 -0.55337459 0.42982244 0.10247447 0.16643335
25120000000 0.17307308 0.031031292 -0.24122602 0.64939815 -0.24132296 0.64959091 0.16781707 0.10424906
25280000000 0.17625566 -0.069977559 0.12675542 0.66474569 0.1266337 0.66498882 0.20463715 0.015681075
25440000000 0.11594566 -0.17906906 0.45253092 0.51072448 0.45253909 0.51098603 0.17917994 -0.10749233
25600000000 0.0067789969 -0.22415975 0.65264702 0.19527537 0.65282845 0.19535838 0.082090043 -0.18860015
25760000000 -0.1010697 -0.21426761 0.65166628 -0.17219128 0.65188777 -0.17217599 -0.041848127 -0.20404913
25920000000 -0.20297956 -0.1535427 0.47385401 -0.48374304 0.47409061 -0.48379982 -0.16883211 -0.15090935
26080000000 -0.25356126 -0.048346221 0.15008943 -0.66416061 0.15021248 -0.6643185 -0.2343595 -0.023102816
26240000000 -0.24452342 0.064256661 -0.22167656 -0.64597499 -0.22158207 -0.64619511 -0.21049732 0.10987122
26400000000 -0.18026341 0.15746641 -0.52953595 -0.43458399 -0.52962989 -0.43481216 -0.11964636 0.19669631
26560000000 -0.077414043 0.20005189 -0.68218178 -0.091748714 -0.68232512 -0.091735736 -0.0073948293 0.20976555
26720000000 0.021833189 0.17725006 -0.63194013 0.28359744 -0.63205796 0.28370088 0.078301489 0.16234004
26880000000 0.078181736 0.10830272 -0.38797963 0.57976961 -0.38804856 0.57985079 0.1115272 0.086017959
27040000000 0.077513508 0.035252839 -0.019177618 0.7008937 -0.019185292 0.70103192 0.095946267 0.024600668
27200000000 0.037302308 -0.0056015723 0.35938525 0.60398084 0.35946921 0.6041171 0.059321471 -0.0014581783
27360000000 0.0023850601 0.00010186274 0.62626129 0.31844908 0.6264081 0.31845757 0.028491236 0.0038789946
27520000000 -0.0020646804 0.019417286 0.6990214 -0.065205194 0.69918352 -0.065151885 0.019612202 0.017837096
27680000000 0.015512214 0.025706373 0.5542472 -0.42633036 0.55436319 -0.42635328 0.028364372 0.028174601
27840000000 0.03666535 0.010939635 0.24459358 -0.65187067 0.24462934 -0.65204298 0.044226307 0.026058048
28000000000 0.032722965 -0.020472044 -0.13934037 -0.68451333 -0.13939168 -0.68455642 0.052649699 0.0096083395
28160000000 0.0056834072 -0.034146518 -0.48273152 -0.50435114 -0.48284352 -0.50443059 0.049876913 -0.0040153712
28320000000 -0.017586948 -0.029661862 -0.67594898 -0.16908988 -0.67601216 -0.1692147 0.048175901 -0.017555041
28480000000 -0.020467047 -0.018171152 -0.66055381 0.21685889 -0.66071355 0.216802 0.038127106 -0.032269303
28640000000 -0.015520908 -0.01410717 -0.44182757 0.5345813 -0.4419789 0.53469431 0.023876218 -0.044499088
28800000000 -0.0069389283 -0.020568579 -0.087583549 0.68507624 -0.087569311 0.68521321 0.011563372 -0.04784856
28960000000 -0.0021026807 -0.03842916 0.2909084 0.62321138 0.29097667 0.62330568 0.0067803757 -0.056280084
29120000000 -0.0097681126 -0.074736089 0.57580614 0.36705711 0.57587028 0.36719394 0.0022371556 -0.081708893
29280000000 -0.053224031 -0.11798019 0.67465746 0.00056406623 0.67481405 0.00052989059 -0.033658437 -0.12416243
29440000000 -0.14063664 -0.13522713 0.55931491 -0.35502952 0.55945367 -0.35507098 -0.12545079 -0.14138015
29600000000 -0.24341245 -0.083986945 0.27776155 -0.58206868 0.2778419 -0.58218604 -0.23210326 -0.081116319
29760000000 -0.30442518 0.03430561 -0.063357241 -0.62324995 -0.063389048 -0.62338275 -0.28781736 0.05131587
29920000000 -0.28236762 0.17884046 -0.36334562 -0.49305555 -0.36344191 -0.49327996 -0.24598427 0.20298335
30080000000 -0.17587253 0.28707767 -0.55639482 -0.24132419 -0.55654079 -0.24142095 -0.11622152 0.29830602
30240000000 -0.031873669 0.31178242 -0.60597914 0.071201742 -0.60613394 0.071187466 0.044558868 0.29467621
30400000000 0.090130031 0.2484199 -0.49383074 0.37897229 -0.49396011 0.37912062 0.15928729 0.18885559
30560000000 0.13706471 0.13493107 -0.22615394 0.59575593 -0.22609897 0.5959363 0.17160067 0.052908052
30720000000 0.099727459 0.042799789 0.13371266 0.63538188 0.13377824 0.63557047 0.092898488 -0.036658112
30880000000 0.03381538 0.018665411 0.45881531 0.46254456 0.45896536 0.4626286 -0.0011073112 -0.034515932
31040000000 0.0002583332 0.035496075 0.63530016 0.14377321 0.63546956 0.14377543 -0.033781141 0.016800279
31200000000 0.0037937509 0.03667077 0.61425859 -0.22387266 0.61432701 -0.22402295 -0.022876348 0.035536516
31360000000 -0.024936067 0.013352141 0.38945273 -0.52207106 0.38942006 -0.52220976 -0.041556858 0.017472578
31520000000 -0.098520301 0.029516615 0.036561593 -0.63958091 0.036481865 -0.63978255 -0.1056485 0.036402818
31680000000 -0.1475379 0.12797037 -0.30797899 -0.53733289 -0.30814868 -0.53746188 -0.14823678 0.13322961
31840000000 -0.10178803 0.25911874 -0.5213834 -0.27932268 -0.52144665 -0.27939305 -0.09780708 0.2611343
32000000000 0.033613309 0.33030835 -0.56749517 0.022895209 -0.56762934 0.022872774 0.044445835 0.32809633
32160000000 0.1939043 0.29461128 -0.47300279 0.29306233 -0.4731479 0.2932027 0.20279725 0.29034173
32320000000 0.30005983 0.16945887 -0.27043694 0.49046677 -0.27057442 0.49066079 0.30626386 0.16127285
32480000000 0.30779296 0.005848398 0.012962193 0.57630199 0.012992535 0.57650602 0.30914572 0.0015675062
32640000000 0.21250434 -0.11155179 0.32445261 0.50415134 0.32456705 0.50434065 0.21553826 -0.10830546
32800000000 0.089783676 -0.13192762 0.5625034 0.25618359 0.56266129 0.25627267 0.10402166 -0.1302958
32960000000 0.014575114 -0.086138971 0.62223524 -0.093447529 0.62239987 -0.093453839 0.030276634 -0.091543116
33120000000 -0.0076452908 -0.038011324 0.47325161 -0.42360312 0.47345796 -0.42380938 0.0078805573 -0.050178505
33280000000 -0.010705745 -0.012609107 0.16461794 -0.61449224 0.16469471 -0.61470664 -0.0028103108 -0.0346113
33440000000 -0.02705797 0.0087682223 -0.19675435 -0.60214353 -0.19674934 -0.60230988 -0.029123779 -0.010512762
33600000000 -0.037718035 0.064610951 -0.48779413 -0.3945595 -0.4879584 -0.39462152 -0.048078328 0.050995369
33760000000 0.0035959627 0.12886781 -0.61429441 -0.066606969 -0.61446393 -0.066553742 -0.0073153218 0.12234775
33920000000 0.089938387 0.15451629 -0.54382759 0.26504382 -0.5438872 0.26512873 0.086947486 0.14341706
34080000000 0.18409541 0.10888027 -0.32035914 0.50192451 -0.32043502 0.50211465 0.18130752 0.092235528
34240000000 0.22859639 0.007083036 -0.014249414 0.59313381 -0.0142118 0.59326881 0.22007355 -0.019407114
34400000000 0.19677086 -0.10093764 0.30047596 0.51605165 0.30055815 0.51625544 0.16754512 -0.12854391
34560000000 0.11200052 -0.16873348 0.53326207 0.28096929 0.53337336 0.28105348 0.071000002 -0.18242417
34720000000 0.0091853719 -0.17512594 0.60542303 -0.04948359 0.60557377 -0.049396206 -0.037970655 -0.17319517
34880000000 -0.081483938 -0.13389385 0.48380619 -0.37071612 0.48389074 -0.37077716 -0.12024035 -0.11314846
35040000000 -0.14709869 -0.050614018 0.20302834 -0.57143265 0.20300923 -0.57148302 -0.17411235 -0.029246548
35200000000 -0.16487715 0.066258505 -0.13853581 -0.58319592 -0.13861431 -0.58337158 -0.18563205 0.079504736
35360000000 -0.10883564 0.19325668 -0.4235673 -0.40768361 -0.42369819 -0.40772864 -0.14576991 0.19182524
35520000000 0.019592011 0.27202237 -0.56182903 -0.1151404 -0.56207407 -0.11507645 -0.034829602 0.28117716
35680000000 0.18354954 0.26475957 -0.52572483 0.19233753 -0.52588421 0.19246717 0.11876336 0.30254263
35840000000 0.32284015 0.16249718 -0.34215352 0.42891091 -0.34223306 0.42914131 0.27522486 0.2289716
36000000000 0.38624379 -0.00062851241 -0.07392098 0.53676105 -0.073854111 0.53692794 0.36768061 0.083714411
36160000000 0.35342103 -0.17073715 0.2114757 0.49894392 0.2116174 0.4991354 0.36121494 -0.096532896
36320000000 0.23668757 -0.28965354 0.44327301 0.32197756 0.44342449 0.3221201 0.2557981 -0.23601976
36480000000 0.094287485 -0.32326853 0.55713826 0.043697514 0.55721921 0.043729141 0.1017004 -0.28526998
36640000000 -0.022640856 -0.27966592 0.50665003 -0.26732799 0.50692368 -0.26741186 -0.036292307 -0.22750549
36800000000 -0.071555726 -0.19948223 0.28372321 -0.51175338 0.28377154 -0.51200652 -0.086408697 -0.11903229
36960000000 -0.05417018 -0.14511712 -0.049792297 -0.59050786 -0.049880374 -0.59067547 -0.035191759 -0.044747405
37120000000 -0.034310434 -0.1577365 -0.37245905 -0.45757312 -0.37262025 -0.45771989 0.034445241 -0.066315852
37280000000 -0.062392954 -0.19887358 -0.55185843 -0.16683494 -0.55206913 -0.16689789 0.027436338 -0.14986466
37440000000 -0.15421538 -0.21397583 -0.53158027 0.15632071 -0.53169996 0.15642802 -0.076797098 -0.19986506
