!Agilent Technologies,N5227A,US51270464,A.10.00.00
!Agilent N5227A: A.10.00.00
!Date: Thursday, July 23, 2020 14:51:03
!Correction: S11(Full 2 Port(1,2)) 
!S21(Full 2 Port(1,2)) 
!S12(Full 2 Port(1,2)) 
!S22(Full 2 Port(1,2)) 
!S2P File: Measurements: S11, S21, S12, S22:
# Hz S  RI   R 50
8000000000 0.013007795 0.0015038643 -0.28680015 0.83065081 -0.28655013 0.83046049 -0.010554987 0.062387545
8160000000 -0.1012428 0.030994548 0.23298772 0.84117174 0.23308097 0.84102315 -0.092179731 0.073272742
8320000000 -0.11971904 0.14658345 0.65322357 0.55986309 0.65325993 0.55966383 -0.10954808 0.16166288
8480000000 -0.024700321 0.21959504 0.8453415 0.10897122 0.84522057 0.10874949 -0.033019587 0.22480582
8640000000 0.086629525 0.18425342 0.76908845 -0.37149191 0.76887715 -0.3716464 0.068324603 0.19718523
8800000000 0.11160379 0.078760274 0.43916219 -0.7429288 0.43896693 -0.74289149 0.097791098 0.10045473
8960000000 0.036014572 0.018868297 -0.055856664 -0.86736292 -0.056012679 -0.86720806 0.033365533 0.03493477
9120000000 -0.040398728 0.068520926 -0.53494763 -0.68080062 -0.53498971 -0.68065697 -0.048219714 0.066110969
9280000000 -0.022972293 0.1536323 -0.81489038 -0.26147637 -0.81487566 -0.26132193 -0.046397958 0.15651919
9440000000 0.081334785 0.19091369 -0.81428277 0.22854733 -0.81419957 0.22867887 0.032807153 0.20843688
9600000000 0.17069836 0.11265492 -0.55469453 0.63579524 -0.55449647 0.63585991 0.12206135 0.17265464
9760000000 0.14787489 0.003842389 -0.1142614 0.84291297 -0.11411489 0.84286207 0.13914818 0.079451002
9920000000 0.054051787 -0.035502087 0.38034531 0.76836407 0.38047963 0.76818967 0.081150308 0.028348798
10080000000 -0.015354714 0.033259969 0.74791074 0.4193083 0.74795812 0.41908872 0.019768603 0.063075922
10240000000 0.022906307 0.12623954 0.84601623 -0.07326518 0.84591544 -0.073455252 0.036096957 0.13495055
10400000000 0.13186772 0.13517603 0.65496653 -0.52362156 0.65480983 -0.52367067 0.11963333 0.1574105
10560000000 0.20264012 0.042978406 0.2593601 -0.79127479 0.259179 -0.79122752 0.19447045 0.098741353
10720000000 0.17228584 -0.070400439 -0.21686016 -0.80612624 -0.21697986 -0.80597109 0.1979713 0.002753048
10880000000 0.069211885 -0.10631122 -0.6322853 -0.55623883 -0.63234609 -0.55602443 0.12872943 -0.053504284
11040000000 -0.0056458665 -0.04427902 -0.84101003 -0.10667466 -0.84093803 -0.10651419 0.061511878 -0.029681787
11200000000 0.01969827 0.039391473 -0.75391287 0.38529316 -0.7537483 0.38537171 0.060647614 0.02947934
11360000000 0.10528857 0.044094283 -0.40568155 0.73569328 -0.40546793 0.73564798 0.11641044 0.05015726
11520000000 0.1517396 -0.033983547 0.069325492 0.83025879 0.069511108 0.83009124 0.16637909 0.0021959685
11680000000 0.10917694 -0.1189556 0.51339459 0.65291321 0.51346624 0.65265405 0.15613253 -0.072466083
11840000000 0.017244829 -0.13142277 0.79095346 0.26195523 0.79085898 0.26168481 0.091604479 -0.10876856
12000000000 -0.037868071 -0.065032706 0.80712056 -0.22412451 0.80694765 -0.22430049 0.0336903 -0.080689341
12160000000 -0.007973847 0.0037941211 0.5435608 -0.63930368 0.54332739 -0.63934475 0.032225061 -0.028957129
12320000000 0.061621871 0.0030574265 0.091537178 -0.8310504 0.091270678 -0.83094412 0.075967968 -0.014727863
12480000000 0.088853545 -0.064203314 -0.38445619 -0.73646545 -0.38455632 -0.73623532 0.10671511 -0.053746238
12640000000 0.041484222 -0.12028932 -0.72493678 -0.39893812 -0.7249369 -0.39872575 0.084627621 -0.10496456
12800000000 -0.028087014 -0.11040016 -0.82483441 0.06882228 -0.82469785 0.069017485 0.026373683 -0.11530149
12960000000 -0.050099727 -0.049150068 -0.64904368 0.51759696 -0.64886892 0.51766145 -0.01051225 -0.07280346
13120000000 -0.0076799095 -0.0093950722 -0.24844186 0.79284608 -0.24816053 0.7927596 0.0093793198 -0.025289664
13280000000 0.043307278 -0.036768828 0.23740955 0.79305881 0.23759349 0.7928645 0.061031923 -0.025663132
13440000000 0.036312606 -0.10110981 0.63482094 0.52270609 0.63485444 0.52241069 0.084088124 -0.078171246
13600000000 -0.029262334 -0.13071787 0.81376916 0.083630107 0.81369084 0.083446354 0.049498513 -0.13017237
13760000000 -0.094667122 -0.09427087 0.72373432 -0.37919629 0.7235508 -0.37928742 -0.016089346 -0.13429059
13920000000 -0.09938743 -0.025564909 0.39323601 -0.7186361 0.39306206 -0.71861672 -0.056373984 -0.085014209
14080000000 -0.053417016 0.0076783923 -0.074517883 -0.81795681 -0.074624561 -0.81779361 -0.040548604 -0.031026561
14240000000 -0.013626682 -0.018539151 -0.51933521 -0.63591188 -0.51935714 -0.63567477 0.0086565027 -0.021177066
14400000000 -0.027849883 -0.061464693 -0.783023 -0.2362425 -0.78291631 -0.23601739 0.037745804 -0.058910757
14560000000 -0.075422429 -0.06142167 -0.77863222 0.23796591 -0.77847946 0.23808356 0.015389911 -0.099918187
14720000000 -0.10139091 -0.012294149 -0.51487237 0.62830651 -0.51467651 0.62829953 -0.028489791 -0.10296557
14880000000 -0.073638491 0.039605461 -0.079543516 0.80854404 -0.079310872 0.80843091 -0.052518129 -0.073080458
15040000000 -0.016797353 0.032122612 0.38523555 0.71624619 0.38534284 0.71610445 -0.035672527 -0.041578814
15200000000 1.3285989e-005 -0.021045115 0.71862674 0.37811384 0.71862572 0.3778877 -0.0043326779 -0.048863195
15360000000 -0.04022577 -0.061687499 0.80382013 -0.087152079 0.80370021 -0.087370358 -0.0055322754 -0.086442851
15520000000 -0.10277082 -0.04438236 0.61659145 -0.5163914 0.61634958 -0.51653361 -0.045447383 -0.11062118
15680000000 -0.12388413 0.018877147 0.22684979 -0.76882267 0.22656399 -0.76880389 -0.0959699 -0.087748654
15840000000 -0.089360073 0.071614847 -0.23660637 -0.76588374 -0.23678689 -0.76570249 -0.11112428 -0.029835381
16000000000 -0.038414083 0.075061366 -0.62355566 -0.50630075 -0.6236102 -0.5060581 -0.0748934 0.018869607
16160000000 -0.019067777 0.045052342 -0.80091989 -0.072398573 -0.80084527 -0.072130181 -0.019506698 0.017070826
16320000000 -0.038951408 0.029004784 -0.70358706 0.3871541 -0.70331812 0.38726223 0.0094439844 -0.028896984
16480000000 -0.054661024 0.052794844 -0.36667058 0.71113253 -0.36642817 0.71107757 -0.01111385 -0.073641643
16640000000 -0.034278426 0.088017806 0.089990161 0.79182559 0.090159699 0.79168802 -0.062530048 -0.081486844
16800000000 0.016878068 0.08803729 0.51339018 0.60823733 0.51351756 0.60798043 -0.087547339 -0.047109298
16960000000 0.050196923 0.049367715 0.76485461 0.22049299 0.76485252 0.22022305 -0.085393652 -0.0095031066
17120000000 0.035127655 0.0028107313 0.75831532 -0.24330868 0.75813216 -0.24348052 -0.054341808 0.00049433927
17280000000 -0.0083164396 -0.0053405082 0.492919 -0.62460572 0.49265739 -0.62466747 -0.038217682 -0.018005943
17440000000 -0.031963561 0.030033533 0.06057458 -0.79132652 0.060321964 -0.79121232 -0.053504422 -0.038401358
17600000000 -0.0064990781 0.065628707 -0.38895944 -0.68900222 -0.3891269 -0.68877739 -0.080304675 -0.032121968
17760000000 0.038777467 0.063165605 -0.70460784 -0.35582423 -0.70465386 -0.35550934 -0.091603555 0.00042928921
17920000000 0.062529035 0.023681693 -0.78278303 0.095476024 -0.78269559 0.095711157 -0.074859306 0.02941473
18080000000 0.04385785 -0.011315656 -0.59727663 0.51508033 -0.59701574 0.5152151 -0.040324237 0.031123336
18240000000 0.010701807 -0.010502378 -0.20836335 0.76031369 -0.20816596 0.76025832 -0.025007578 0.0051982123
18400000000 0.0052637891 0.016731758 0.2510331 0.7457692 0.25124756 0.74559414 -0.036315154 -0.017824367
18560000000 0.032511391 0.030888902 0.62212354 0.47800091 0.62218106 0.47779399 -0.065757632 -0.018093167
18720000000 0.061073583 0.005141194 0.78092355 0.050987292 0.78087974 0.050766643 -0.078779265 0.0075672599
18880000000 0.061902069 -0.02962029 0.67625433 -0.39099991 0.67608625 -0.39102748 -0.065421037 0.040014327
19040000000 0.035576209 -0.057759475 0.34428763 -0.70039475 0.34410092 -0.70034254 -0.033201054 0.049258232
19200000000 0.0027635256 -0.0492316 -0.10420839 -0.77337217 -0.10433508 -0.77325135 -0.0089676613 0.02949493
19360000000 -0.0013814745 -0.030824993 -0.51727474 -0.58339572 -0.51734138 -0.58316869 -0.0082020331 -0.00019232649
19520000000 0.0093336999 -0.02824064 -0.75353634 -0.19533859 -0.75349939 -0.19510689 -0.029652525 -0.01611452
19680000000 0.011461593 -0.046602942 -0.73286599 0.25713831 -0.73275429 0.25723928 -0.053120013 -0.0087673012
19840000000 -0.0073627899 -0.061349846 -0.46474722 0.62042385 -0.46455657 0.62041831 -0.058000896 0.015244322
20000000000 -0.033560313 -0.055242769 -0.040665578 0.7728982 -0.040462233 0.77279669 -0.043098282 0.031597797
20160000000 -0.044233814 -0.034800332 0.39618105 0.66375726 0.39628565 0.66362572 -0.020023106 0.029033694
20320000000 -0.035286114 -0.019889692 0.69810641 0.33002943 0.69809115 0.32984561 -0.011370541 0.009034723
20480000000 -0.026377374 -0.022173302 0.76245326 -0.11528195 0.76232713 -0.11541461 -0.021720046 -0.0099222315
20640000000 -0.032431807 -0.031670034 0.56758505 -0.51993656 0.56744581 -0.51989621 -0.041176911 -0.011114182
20800000000 -0.051416211 -0.027201379 0.18125059 -0.74639565 0.18110026 -0.74635005 -0.054275937 0.0012668244
20960000000 -0.05844485 -0.0057724058 -0.26446277 -0.71962517 -0.26456708 -0.71946859 -0.054007392 0.017234525
21120000000 -0.043403439 0.0090385713 -0.61975068 -0.44976062 -0.61975682 -0.44961703 -0.037909005 0.022109685
21280000000 -0.022742733 0.0064174365 -0.76413208 -0.027772443 -0.76407611 -0.027698917 -0.031357419 0.015172385
21440000000 -0.017567612 -0.010324601 -0.64871055 0.40241402 -0.64856124 0.40247077 -0.03559443 0.0082840081
21600000000 -0.033786513 -0.020657847 -0.31369188 0.69448292 -0.31352893 0.69441855 -0.046149049 0.0083539784
21760000000 -0.050478656 -0.0070278188 0.12651065 0.74997556 0.12672432 0.74982709 -0.051865991 0.016235307
21920000000 -0.04328534 0.011926807 0.52207637 0.55121064 0.52215582 0.55090868 -0.048823144 0.022615319
22080000000 -0.020800894 0.012371933 0.73953718 0.16638018 0.73941189 0.16606978 -0.047768969 0.021067662
22240000000 -0.00945035 -0.013957291 0.70533699 -0.27391019 0.70507818 -0.27414572 -0.05622869 0.020329993
22400000000 -0.030124925 -0.041281451 0.43156794 -0.61912924 0.43126583 -0.61922753 -0.066782668 0.031101326
22560000000 -0.06939429 -0.039031629 0.013345518 -0.75239402 0.013066348 -0.75228882 -0.066520296 0.056182288
22720000000 -0.095753476 -0.0016394759 -0.40684178 -0.63078123 -0.40697503 -0.63056964 -0.047236428 0.078095615
22880000000 -0.083378509 0.043260664 -0.68797588 -0.29721975 -0.68794739 -0.29706588 -0.017232867 0.080946147
23040000000 -0.047183517 0.058552131 -0.73652518 0.13589135 -0.73638654 0.13608573 0.0061851256 0.062218811
23200000000 -0.024030382 0.045551818 -0.5351913 0.52335912 -0.53494364 0.52345783 0.010091061 0.032448001
23360000000 -0.020104356 0.020234542 -0.15191735 0.7323643 -0.15164842 0.73232144 -0.010667911 0.016746366
23520000000 -0.033090904 0.021162016 0.28263852 0.69108415 0.28276467 0.69087148 -0.030991031 0.021076245
23680000000 -0.02909858 0.039477974 0.61870247 0.4144417 0.61868775 0.41420588 -0.044588055 0.038668849
23840000000 -0.0022835177 0.04409584 0.7425946 -0.001355406 0.74246192 -0.0015104332 -0.041515589 0.060359411
24000000000 0.023831131 0.017021975 0.61389911 -0.41416821 0.61371952 -0.41415325 -0.024637064 0.076146103
24160000000 0.015077482 -0.031898025 0.27819309 -0.68393552 0.27800199 -0.68384749 -0.011816908 0.089332834
24320000000 -0.032668892 -0.053982653 -0.14934956 -0.7212134 -0.14949265 -0.72105646 0.014060432 0.0875879
24480000000 -0.082655437 -0.031926341 -0.52419913 -0.51498187 -0.52426177 -0.51477331 0.034648333 0.07848043
24640000000 -0.093989521 0.017207963 -0.7209816 -0.13606209 -0.72096127 -0.13583058 0.048897345 0.056108929
24800000000 -0.063876562 0.053292975 -0.67426366 0.28813633 -0.67410916 0.28822303 0.049149573 0.033616047
24960000000 -0.025596039 0.044821233 -0.39911735 0.61520123 -0.39888722 0.61526233 0.033681955 0.021046884
25120000000 -0.019867342 0.012818427 0.012861907 0.73290014 0.013087631 0.73280925 0.018629637 0.028028104
25280000000 -0.046666797 -0.0023063319 0.41940156 0.59957063 0.41953576 0.59942335 0.02340343 0.0412766
25440000000 -0.072569735 0.019078761 0.68107098 0.26285043 0.68110067 0.26262113 0.040543161 0.045044117
25600000000 -0.067146488 0.054427508 0.71053529 -0.16093732 0.71043909 -0.16121083 0.058247961 0.028181322
25760000000 -0.032134183 0.066091418 0.49977764 -0.52929968 0.4995937 -0.52943861 0.053823389 0.0060713445
25920000000 -0.0075243171 0.043885496 0.119082 -0.71780711 0.1188216 -0.71781605 0.037251007 -0.0023243446
26080000000 -0.014198467 0.013684593 -0.30239815 -0.66106546 -0.30259603 -0.66088891 0.02754391 0.0073486734
26240000000 -0.044115439 0.0079699587 -0.61917621 -0.3782413 -0.61922687 -0.37794656 0.036255527 0.017967587
26400000000 -0.059105169 0.031766042 -0.72316498 0.032038685 -0.72307932 0.032267485 0.052472707 0.011551579
26560000000 -0.043027073 0.05325928 -0.58118999 0.42964289 -0.58096516 0.42985854 0.053699587 -0.0082882438
26720000000 -0.015324339 0.047347739 -0.24147166 0.68036824 -0.24112017 0.68039572 0.041248556 -0.014655744
26880000000 -0.0097060185 0.011853644 0.18046589 0.69776851 0.18070754 0.69755638 0.038820334 -0.005768212
27040000000 -0.041963626 -0.014906045 0.5384717 0.47508442 0.53856766 0.47481033 0.060011134 -0.0020356632
27200000000 -0.093916543 -0.0031550163 0.70829177 0.092521615 0.70823085 0.092236914 0.087790899 -0.029913211
27360000000 -0.11731143 0.047678333 0.63655454 -0.31635907 0.63631111 -0.31656507 0.080914728 -0.080442607
27520000000 -0.099656567 0.099533364 0.35231221 -0.61458635 0.35201508 -0.61464047 0.030578444 -0.12081027
27680000000 -0.054200105 0.11571148 -0.048574716 -0.70658165 -0.048891339 -0.70643115 -0.032471824 -0.10389242
27840000000 -0.020614469 0.10127231 -0.43530059 -0.55988199 -0.43548471 -0.55961174 -0.057713032 -0.049689606
28000000000 -0.020080132 0.069640197 -0.67483622 -0.2202215 -0.67479062 -0.21979769 -0.019188771 -0.0081484523
28160000000 -0.041368101 0.05877519 -0.68052077 0.19635366 -0.68025422 0.19665688 0.028018305 -0.030402822
28320000000 -0.063408695 0.077724516 -0.45107952 0.54117423 -0.45082715 0.54115778 0.020389426 -0.091029771
28480000000 -0.057725545 0.11095016 -0.071406849 0.69665706 -0.071168892 0.69658303 -0.04788525 -0.11356682
28640000000 -0.033285245 0.13537061 0.32641858 0.61644441 0.32665151 0.61624408 -0.10757472 -0.066359848
28800000000 -0.00021604775 0.13299322 0.61356235 0.33058968 0.61361003 0.33024105 -0.095763914 0.012329242
28960000000 0.014622054 0.10690662 0.69480586 -0.068492211 0.69467866 -0.068752415 -0.023377849 0.031215783
29120000000 -0.002761126 0.091066055 0.53611255 -0.44690868 0.53584629 -0.4470537 0.022349246 -0.029819207
29280000000 -0.022502683 0.10867357 0.1907457 -0.66768801 0.19038709 -0.66764462 -0.020411862 -0.098698437
29440000000 -0.013361419 0.14858469 -0.21313286 -0.65440965 -0.21340133 -0.65419358 -0.11365282 -0.093781702
29600000000 0.034319106 0.16802283 -0.53632933 -0.42359704 -0.53642154 -0.4232772 -0.15928468 -0.0068082958
29760000000 0.085940242 0.14699338 -0.68035352 -0.056855507 -0.68024772 -0.056515627 -0.11301094 0.076224066
29920000000 0.10021713 0.095786452 -0.59994787 0.33255601 -0.5998289 0.3327347 -0.02572923 0.077569887
30080000000 0.067752287 0.062347624 -0.31096855 0.61523348 -0.31061488 0.61529207 0.0078179389 0.0011647829
30240000000 0.030122347 0.078443438 0.091195434 0.68174893 0.091501199 0.68155849 -0.052135866 -0.05217291
30400000000 0.038047284 0.1221745 0.45430228 0.50770676 0.45444149 0.50736511 -0.13050127 -0.019260485
30560000000 0.090190805 0.13777204 0.65309691 0.16791265 0.65308291 0.16760014 -0.13428636 0.074566081
30720000000 0.14066014 0.098975398 0.6356253 -0.21906127 0.63547242 -0.21929885 -0.059262522 0.12656644
30880000000 0.13974927 0.03368463 0.41032273 -0.53746873 0.40996999 -0.53760689 0.017290793 0.088304341
31040000000 0.086111158 -0.00024973688 0.037935484 -0.67996186 0.037614882 -0.67989463 0.016362211 0.010118531
31200000000 0.0401637 0.028344091 -0.35390651 -0.5817591 -0.35408023 -0.58146077 -0.05486118 -0.015073081
31360000000 0.049585402 0.078912623 -0.61495692 -0.27903453 -0.61494869 -0.27861881 -0.10175271 0.042192776
31520000000 0.099189311 0.085818119 -0.66079736 0.10942145 -0.66066998 0.10978048 -0.066102989 0.10551198
31680000000 0.12459096 0.038721643 -0.48913786 0.45729694 -0.48883471 0.45744881 0.00031565261 0.098564014
31840000000 0.085958064 -0.0049057496 -0.14929429 0.65611994 -0.14898486 0.65602881 0.012395513 0.036588769
32000000000 0.028437341 0.021340879 0.24971591 0.62438911 0.24992579 0.62418646 -0.050174441 0.0055415793
32160000000 0.029652998 0.097828448 0.55229598 0.36734042 0.55239707 0.3671025 -0.11260058 0.068323866
32320000000 0.10755084 0.14118917 0.64981228 -0.0020524294 0.64980304 -0.0023184808 -0.081249103 0.16830179
32480000000 0.1985243 0.098600619 0.53668678 -0.35075644 0.53642344 -0.35094306 0.0280354 0.20469773
32640000000 0.2245734 -0.0044496106 0.26169544 -0.58690596 0.26145652 -0.58696234 0.1218718 0.14429383
32800000000 0.16847147 -0.083053038 -0.10541324 -0.64349794 -0.10571043 -0.64334857 0.13395475 0.03718612
32960000000 0.082834408 -0.081574835 -0.45582798 -0.48007706 -0.45600304 -0.47979632 0.059165552 -0.020451255
33120000000 0.053134106 -0.019787248 -0.6505819 -0.1360852 -0.65061921 -0.13571851 -0.0072759758 0.015297683
33280000000 0.090070896 0.017019562 -0.61004931 0.25410783 -0.60985613 0.25438699 0.0039422964 0.076205112
33440000000 0.13543263 -0.0068101673 -0.36207014 0.54746163 -0.36179367 0.5475589 0.067931265 0.083549052
33600000000 0.13022874 -0.061940014 0.0023794663 0.65624321 0.0027313919 0.65614134 0.099695399 0.02886688
33760000000 0.083768718 -0.08278963 0.37036648 0.54579568 0.3705785 0.54562908 0.064054653 -0.027428707
33920000000 0.053403746 -0.055464633 0.61598647 0.24301921 0.61597961 0.24263018 -0.0011517014 -0.026624363
34080000000 0.062856451 -0.020140974 0.6443873 -0.1468448 0.64424795 -0.1471926 -0.02185793 0.034301996
34240000000 0.098727517 -0.02329501 0.44841874 -0.48074904 0.44811508 -0.48093325 0.02406875 0.072987698
34400000000 0.11095401 -0.060530327 0.10341224 -0.64705354 0.10313207 -0.64703876 0.071014151 0.050362617
34560000000 0.082928911 -0.091814429 -0.27533111 -0.59504426 -0.27558592 -0.59488606 0.080136836 -0.00176711
34720000000 0.049464639 -0.080375597 -0.56321651 -0.33941248 -0.56327713 -0.3391681 0.034372173 -0.030327348
34880000000 0.04687823 -0.052655548 -0.65713471 0.036677718 -0.65700191 0.037085555 -0.0047209472 -0.00046138233
35040000000 0.074726589 -0.044354759 -0.5203836 0.39979035 -0.52000648 0.40002981 0.0019435025 0.045524329
35200000000 0.098842829 -0.069111772 -0.20524487 0.61985004 -0.20491341 0.61987096 0.056355145 0.060003079
35360000000 0.091499627 -0.10606852 0.175758 0.62623578 0.17607985 0.62604547 0.097388484 0.013177433
35520000000 0.065117396 -0.13024968 0.49431175 0.42088836 0.4945744 0.42048731 0.084519371 -0.055260058
35680000000 0.034414876 -0.13832167 0.64533681 0.072159447 0.64522046 0.07174594 0.018215431 -0.083100729
35840000000 0.0061530289 -0.13092716 0.57518613 -0.3023282 0.57497162 -0.30267069 -0.039013971 -0.048677545
36000000000 -0.0028787595 -0.11590707 0.30681717 -0.57330549 0.30642492 -0.57345301 -0.041385699 0.022021394
36160000000 -0.0080715185 -0.11115097 -0.068762667 -0.64643139 -0.069140784 -0.64633906 0.010889025 0.050318982
36320000000 -0.012678133 -0.10761938 -0.41985133 -0.49525607 -0.42017931 -0.49496907 0.06189533 0.020546248
36480000000 -0.015022725 -0.10989279 -0.62456942 -0.17307495 -0.62468058 -0.17270102 0.060878858 -0.038888067
36640000000 -0.033047292 -0.11588641 -0.61225963 0.20701304 -0.61219949 0.20734887 0.0045196139 -0.063182838
36800000000 -0.055027034 -0.10547588 -0.38986108 0.51387113 -0.38949719 0.51410574 -0.046113975 -0.030216599
36960000000 -0.061895438 -0.090878963 -0.034590229 0.64398527 -0.034216598 0.64396441 -0.034226064 0.031158039
37120000000 -0.06002951 -0.076996103 0.33414042 0.55174071 0.33440673 0.55144602 0.024040226 0.043214776
